# Hz S DB R 50
! CMT, C1209, 21460007, 21.4.4/2
! Date: 4/14/2023 1:33:27 PM
! Data: Format (Calibration Info)
! Freq	S11:dB/Ang(--)
1.00000000000E+05	-2.50649957587E-02	1.79520043229E+02
1.90034006801E+06	-6.62782947685E-02	1.73368179676E+02
3.70068013603E+06	-9.78938406639E-02	1.67352567649E+02
5.50102020404E+06	-1.18006849761E-01	1.61396508812E+02
7.30136027205E+06	-1.35670918440E-01	1.55451236754E+02
9.10170034007E+06	-1.49077636453E-01	1.49549183486E+02
1.09020404081E+07	-1.56035583996E-01	1.43587280011E+02
1.27023804761E+07	-1.74457537005E-01	1.37720292476E+02
1.45027205441E+07	-1.82672712828E-01	1.31812737772E+02
1.63030606121E+07	-1.92270100917E-01	1.25917024817E+02
1.81034006801E+07	-1.98321253484E-01	1.20010799489E+02
1.99037407481E+07	-2.06194579205E-01	1.14107606590E+02
2.17040808162E+07	-2.10574380496E-01	1.08221967546E+02
2.35044208842E+07	-2.16251348019E-01	1.02314608127E+02
2.53047609522E+07	-2.20953541639E-01	9.64204171584E+01
2.71051010202E+07	-2.23140245827E-01	9.05171920609E+01
2.89054410882E+07	-2.25261186586E-01	8.46006396459E+01
3.07057811562E+07	-2.28049191470E-01	7.86939002957E+01
3.25061212242E+07	-2.28654958509E-01	7.27672158269E+01
3.43064612923E+07	-2.28190281817E-01	6.68449338940E+01
3.61068013603E+07	-2.28582461082E-01	6.09236935409E+01
3.79071414283E+07	-2.28241529879E-01	5.49812204443E+01
3.97074814963E+07	-2.27316639434E-01	4.90478373114E+01
4.15078215643E+07	-2.25573065949E-01	4.31142893488E+01
4.33081616323E+07	-2.21674067008E-01	3.71731499330E+01
4.51085017003E+07	-2.21827405470E-01	3.12217804370E+01
4.69088417684E+07	-2.20927022722E-01	2.52640704733E+01
4.87091818364E+07	-2.18632120554E-01	1.93018602101E+01
5.05095219044E+07	-2.13269182188E-01	1.33488120903E+01
5.23098619724E+07	-2.11442008538E-01	7.38234840396E+00
5.41102020404E+07	-2.11087495597E-01	1.42303348700E+00
5.59105421084E+07	-2.09224031704E-01	-4.55472820496E+00
5.77108821764E+07	-2.08018215282E-01	-1.05223133874E+01
5.95112222444E+07	-2.06348292852E-01	-1.64870532179E+01
6.13115623125E+07	-2.03812372437E-01	-2.24562111154E+01
6.31119023805E+07	-2.04529233861E-01	-2.84286996227E+01
6.49122424485E+07	-2.04987139899E-01	-3.44000372700E+01
6.67125825165E+07	-2.04560180502E-01	-4.03546288564E+01
6.85129225845E+07	-2.05069172174E-01	-4.63414334922E+01
7.03132626525E+07	-2.07818913018E-01	-5.22875315393E+01
7.21136027205E+07	-2.08785126681E-01	-5.82384027932E+01
7.39139427886E+07	-2.10881061393E-01	-6.41855899262E+01
7.57142828566E+07	-2.15660533324E-01	-7.01396105923E+01
7.75146229246E+07	-2.15763350295E-01	-7.60912801755E+01
7.93149629926E+07	-2.20842063140E-01	-8.20221562890E+01
8.11153030606E+07	-2.24376325404E-01	-8.79701340669E+01
8.29156431286E+07	-2.28336869541E-01	-9.38781256768E+01
8.47159831966E+07	-2.34742187025E-01	-9.98169774291E+01
8.65163232647E+07	-2.38838211148E-01	-1.05719216496E+02
8.83166633327E+07	-2.44568384780E-01	-1.11634211065E+02
9.01170034007E+07	-2.52734462692E-01	-1.17547160499E+02
9.19173434687E+07	-2.59184601871E-01	-1.23428845101E+02
9.37176835367E+07	-2.66521702137E-01	-1.29328682079E+02
9.55180236047E+07	-2.72868233632E-01	-1.35208355884E+02
9.73183636727E+07	-2.81185956956E-01	-1.41080400400E+02
9.91187037407E+07	-2.88031124117E-01	-1.46964060770E+02
1.00919043809E+08	-2.97901892594E-01	-1.52822413455E+02
1.02719383877E+08	-3.06420439306E-01	-1.58677666066E+02
1.04519723945E+08	-3.12767716394E-01	-1.64550160019E+02
1.06320064013E+08	-3.20916075302E-01	-1.70397059078E+02
1.08120404081E+08	-3.29228935540E-01	-1.76249554999E+02
1.09920744149E+08	-3.39549233437E-01	1.77911619976E+02
1.11721084217E+08	-3.45502062322E-01	1.72072315429E+02
1.13521424285E+08	-3.53113190481E-01	1.66218444467E+02
1.15321764353E+08	-3.59605296555E-01	1.60369920036E+02
1.17122104421E+08	-3.67660146696E-01	1.54533960147E+02
1.18922444489E+08	-3.75028899659E-01	1.48682802886E+02
1.20722784557E+08	-3.82846702754E-01	1.42851397361E+02
1.22523124625E+08	-3.87513452109E-01	1.36999063407E+02
1.24323464693E+08	-3.92709869519E-01	1.31157376061E+02
1.26123804761E+08	-3.97746034483E-01	1.25302400190E+02
1.27924144829E+08	-4.02726295767E-01	1.19449823245E+02
1.29724484897E+08	-4.06766152369E-01	1.13593232878E+02
1.31524824965E+08	-4.10694880478E-01	1.07755749042E+02
1.33325165033E+08	-4.16502931260E-01	1.01872357718E+02
1.35125505101E+08	-4.17548563625E-01	9.60146398059E+01
1.36925845169E+08	-4.20301714012E-01	9.01258378475E+01
1.38726185237E+08	-4.22307510064E-01	8.42431169627E+01
1.40526525305E+08	-4.23490899517E-01	7.83521871143E+01
1.42326865373E+08	-4.24700341566E-01	7.24598070468E+01
1.44127205441E+08	-4.24997847201E-01	6.65813396072E+01
1.45927545509E+08	-4.25763619578E-01	6.06665425875E+01
1.47727885577E+08	-4.24958567694E-01	5.47608398964E+01
1.49528225645E+08	-4.24512246653E-01	4.88348594331E+01
1.51328565713E+08	-4.23062814169E-01	4.29134278778E+01
1.53128905781E+08	-4.23379623273E-01	3.69729459226E+01
1.54929245849E+08	-4.18866104347E-01	3.10456459899E+01
1.56729585917E+08	-4.19696286211E-01	2.51167736276E+01
1.58529925985E+08	-4.16204047434E-01	1.91670060479E+01
1.60330266053E+08	-4.14101418901E-01	1.32156794649E+01
1.62130606121E+08	-4.15503336518E-01	7.25579411463E+00
1.63930946189E+08	-4.11689375563E-01	1.30064626724E+00
1.65731286257E+08	-4.10343492400E-01	-4.65282875441E+00
1.67531626325E+08	-4.07969626083E-01	-1.06237371420E+01
1.69331966393E+08	-4.05150924392E-01	-1.65847148889E+01
1.71132306461E+08	-4.06178351829E-01	-2.25562213175E+01
1.72932646529E+08	-4.05137946556E-01	-2.85199444947E+01
1.74732986597E+08	-4.03670172678E-01	-3.44676628237E+01
1.76533326665E+08	-4.02427072524E-01	-4.04485497488E+01
1.78333666733E+08	-4.01654182001E-01	-4.64096104439E+01
1.80134006801E+08	-4.03501209110E-01	-5.23686286885E+01
1.81934346869E+08	-4.03477142393E-01	-5.83410234328E+01
1.83734686937E+08	-4.02641525078E-01	-6.42828902765E+01
1.85535027005E+08	-4.04390978692E-01	-7.02389337938E+01
1.87335367073E+08	-4.06529329288E-01	-7.61890378383E+01
1.89135707141E+08	-4.08168260941E-01	-8.21242057976E+01
1.90936047209E+08	-4.10806691017E-01	-8.80668421315E+01
1.92736387277E+08	-4.14471060819E-01	-9.39913566854E+01
1.94536727345E+08	-4.16484381074E-01	-9.99117675560E+01
1.96337067413E+08	-4.20406533940E-01	-1.05831167436E+02
1.98137407481E+08	-4.23935802754E-01	-1.11743084673E+02
1.99937747550E+08	-4.29453933427E-01	-1.17654126438E+02
2.01738087618E+08	-4.35156372517E-01	-1.23533716906E+02
2.03538427686E+08	-4.39584554974E-01	-1.29435124938E+02
2.05338767754E+08	-4.42919460330E-01	-1.35323498989E+02
2.07139107822E+08	-4.48695424081E-01	-1.41195581869E+02
2.08939447890E+08	-4.56833857226E-01	-1.47060439432E+02
2.10739787958E+08	-4.63692961489E-01	-1.52932884843E+02
2.12540128026E+08	-4.69111290149E-01	-1.58796446921E+02
2.14340468094E+08	-4.73936279514E-01	-1.64651461793E+02
2.16140808162E+08	-4.80855698134E-01	-1.70492451292E+02
2.17941148230E+08	-4.86772811720E-01	-1.76352997769E+02
2.19741488298E+08	-4.92792449618E-01	1.77817182958E+02
2.21541828366E+08	-4.98534762856E-01	1.71986293650E+02
2.23342168434E+08	-5.05496034431E-01	1.66139247080E+02
2.25142508502E+08	-5.11279460228E-01	1.60323200411E+02
2.26942848570E+08	-5.16490444567E-01	1.54486081512E+02
2.28743188638E+08	-5.21153341387E-01	1.48651004455E+02
2.30543528706E+08	-5.27820978323E-01	1.42823439999E+02
2.32343868774E+08	-5.31888321881E-01	1.36995266210E+02
2.34144208842E+08	-5.34928188670E-01	1.31160089689E+02
2.35944548910E+08	-5.39464855124E-01	1.25342920795E+02
2.37744888978E+08	-5.42431736989E-01	1.19486540325E+02
2.39545229046E+08	-5.47574589011E-01	1.13649620131E+02
2.41345569114E+08	-5.48461071981E-01	1.07802353445E+02
2.43145909182E+08	-5.50785784884E-01	1.01961259094E+02
2.44946249250E+08	-5.55481579246E-01	9.61201594478E+01
2.46746589318E+08	-5.55875841062E-01	9.02583805675E+01
2.48546929386E+08	-5.55993277958E-01	8.43999857673E+01
2.50347269454E+08	-5.58178056671E-01	7.85299565240E+01
2.52147609522E+08	-5.58018034509E-01	7.26552686151E+01
2.53947949590E+08	-5.57431185158E-01	6.67795516727E+01
2.55748289658E+08	-5.56963228339E-01	6.08941317154E+01
2.57548629726E+08	-5.57169180007E-01	5.49962514212E+01
2.59348969794E+08	-5.54846733756E-01	4.91145963762E+01
2.61149309862E+08	-5.52414443479E-01	4.31879339157E+01
2.62949649930E+08	-5.52567354551E-01	3.72762474514E+01
2.64749989998E+08	-5.52716803806E-01	3.13648575631E+01
2.66550330066E+08	-5.48832797083E-01	2.54374862839E+01
2.68350670134E+08	-5.45001202650E-01	1.95013481885E+01
2.70151010202E+08	-5.43807547721E-01	1.35544548192E+01
2.71951350270E+08	-5.39673505570E-01	7.60115509476E+00
2.73751690338E+08	-5.38099348939E-01	1.65679979235E+00
2.75552030406E+08	-5.36434359545E-01	-4.28539444328E+00
2.77352370474E+08	-5.35186528622E-01	-1.02562471714E+01
2.79152710542E+08	-5.31160181234E-01	-1.62081659377E+01
2.80953050610E+08	-5.29834425173E-01	-2.21743440009E+01
2.82753390678E+08	-5.26976277138E-01	-2.81352057341E+01
2.84553730746E+08	-5.26476754085E-01	-3.41176993457E+01
2.86354070814E+08	-5.24432668694E-01	-4.00817940126E+01
2.88154410882E+08	-5.24501454304E-01	-4.60523106522E+01
2.89954750950E+08	-5.22151322413E-01	-5.20232043208E+01
2.91755091018E+08	-5.22045672978E-01	-5.79718395313E+01
2.93555431086E+08	-5.22613157106E-01	-6.39339028192E+01
2.95355771154E+08	-5.22993965557E-01	-6.98972546339E+01
2.97156111222E+08	-5.23899703128E-01	-7.58516340142E+01
2.98956451290E+08	-5.24906257371E-01	-8.18126027532E+01
3.00756791358E+08	-5.27765761971E-01	-8.77675248463E+01
3.02557131426E+08	-5.29855076605E-01	-9.37020976204E+01
3.04357471494E+08	-5.30273229901E-01	-9.96271859524E+01
3.06157811562E+08	-5.34058682626E-01	-1.05567568693E+02
3.07958151630E+08	-5.38253750192E-01	-1.11496053994E+02
3.09758491698E+08	-5.42526179720E-01	-1.17404546369E+02
3.11558831766E+08	-5.45991028627E-01	-1.23325677685E+02
3.13359171834E+08	-5.49445622899E-01	-1.29236632715E+02
3.15159511902E+08	-5.55773167486E-01	-1.35141645215E+02
3.16959851970E+08	-5.59561307077E-01	-1.41010673997E+02
3.18760192038E+08	-5.62764553409E-01	-1.46906118410E+02
3.20560532106E+08	-5.70647545631E-01	-1.52775121647E+02
3.22360872174E+08	-5.74128962688E-01	-1.58660830158E+02
3.24161212242E+08	-5.80506739455E-01	-1.64509653789E+02
3.25961552310E+08	-5.86531190108E-01	-1.70370760877E+02
3.27761892378E+08	-5.91222159874E-01	-1.76225887803E+02
3.29562232446E+08	-5.97736282672E-01	1.77933945240E+02
3.31362572515E+08	-6.02712116173E-01	1.72084872606E+02
3.33162912583E+08	-6.06668307011E-01	1.66245815903E+02
3.34963252651E+08	-6.12271684213E-01	1.60420613537E+02
3.36763592719E+08	-6.19309560961E-01	1.54587793428E+02
3.38563932787E+08	-6.21635065414E-01	1.48773737187E+02
3.40364272855E+08	-6.26090907588E-01	1.42939957886E+02
3.42164612923E+08	-6.32502831559E-01	1.37114500168E+02
3.43964952991E+08	-6.34063619108E-01	1.31297822340E+02
3.45765293059E+08	-6.37343353648E-01	1.25467599193E+02
3.47565633127E+08	-6.39725300452E-01	1.19638166928E+02
3.49365973195E+08	-6.43122210338E-01	1.13815991775E+02
3.51166313263E+08	-6.44615997634E-01	1.07995332220E+02
3.52966653331E+08	-6.48029730876E-01	1.02159867343E+02
3.54766993399E+08	-6.49962204423E-01	9.63195237236E+01
3.56567333467E+08	-6.50477745815E-01	9.04892678188E+01
3.58367673535E+08	-6.51043197136E-01	8.46489792193E+01
3.60168013603E+08	-6.50937850369E-01	7.87958737824E+01
3.61968353671E+08	-6.51749627928E-01	7.29404310271E+01
3.63768693739E+08	-6.50654913885E-01	6.70695503326E+01
3.65569033807E+08	-6.48787705714E-01	6.12155930177E+01
3.67369373875E+08	-6.47473554295E-01	5.53460696062E+01
3.69169713943E+08	-6.47288908738E-01	4.94590547564E+01
3.70970054011E+08	-6.44505713282E-01	4.35986364323E+01
3.72770394079E+08	-6.43704128959E-01	3.76928494287E+01
3.74570734147E+08	-6.40836093698E-01	3.17955118688E+01
3.76371074215E+08	-6.38758940467E-01	2.58975344412E+01
3.78171414283E+08	-6.35987019708E-01	1.99776549947E+01
3.79971754351E+08	-6.32268978043E-01	1.40533040011E+01
3.81772094419E+08	-6.29007122411E-01	8.13678765844E+00
3.83572434487E+08	-6.27981368560E-01	2.21444579020E+00
3.85372774555E+08	-6.24175036061E-01	-3.73692412797E+00
3.87173114623E+08	-6.23208128199E-01	-9.68720122852E+00
3.88973454691E+08	-6.20750533482E-01	-1.56277899530E+01
3.90773794759E+08	-6.17957383951E-01	-2.15794186314E+01
3.92574134827E+08	-6.15121241835E-01	-2.75315030931E+01
3.94374474895E+08	-6.13469060483E-01	-3.34872639035E+01
3.96174814963E+08	-6.10658142892E-01	-3.94501220739E+01
3.97975155031E+08	-6.09486443566E-01	-4.54040315296E+01
3.99775495099E+08	-6.08581794598E-01	-5.13811288794E+01
4.01575835167E+08	-6.08758189248E-01	-5.73289251642E+01
4.03376175235E+08	-6.07534596429E-01	-6.32854817625E+01
4.05176515303E+08	-6.09318389602E-01	-6.92476015440E+01
4.06976855371E+08	-6.05465488401E-01	-7.52177768534E+01
4.08777195439E+08	-6.09922681037E-01	-8.11797476391E+01
4.10577535507E+08	-6.11134043480E-01	-8.71396156152E+01
4.12377875575E+08	-6.13373353848E-01	-9.30986715830E+01
4.14178215643E+08	-6.16401854404E-01	-9.90416703048E+01
4.15978555711E+08	-6.18294674750E-01	-1.04972247573E+02
4.17778895779E+08	-6.19485349068E-01	-1.10929925025E+02
4.19579235847E+08	-6.22954303994E-01	-1.16859925454E+02
4.21379575915E+08	-6.28050952493E-01	-1.22793163619E+02
4.23179915983E+08	-6.31425882813E-01	-1.28709545155E+02
4.24980256051E+08	-6.37926998208E-01	-1.34618282640E+02
4.26780596119E+08	-6.41803091044E-01	-1.40526763999E+02
4.28580936187E+08	-6.43026467337E-01	-1.46424321715E+02
4.30381276255E+08	-6.50264384780E-01	-1.52316579133E+02
4.32181616323E+08	-6.56322881196E-01	-1.58213595045E+02
4.33981956391E+08	-6.59368500643E-01	-1.64088628112E+02
4.35782296459E+08	-6.65282298240E-01	-1.69970904300E+02
4.37582636527E+08	-6.70503901421E-01	-1.75837225952E+02
4.39382976595E+08	-6.76369083499E-01	1.78310048539E+02
4.41183316663E+08	-6.80031292479E-01	1.72449783614E+02
4.42983656731E+08	-6.86173270411E-01	1.66598694070E+02
4.44783996799E+08	-6.89554452333E-01	1.60750325791E+02
4.46584336867E+08	-6.95004133820E-01	1.54921244446E+02
4.48384676935E+08	-6.98464669748E-01	1.49067179019E+02
4.50185017003E+08	-7.04075847216E-01	1.43243139767E+02
4.51985357071E+08	-7.08786063255E-01	1.37421719413E+02
4.53785697139E+08	-7.09101950752E-01	1.31596064883E+02
4.55586037207E+08	-7.12972148838E-01	1.25769028822E+02
4.57386377275E+08	-7.19163730821E-01	1.19941109725E+02
4.59186717343E+08	-7.20133641670E-01	1.14107211087E+02
4.60987057411E+08	-7.22591453999E-01	1.08303160625E+02
4.62787397479E+08	-7.22418809306E-01	1.02461665120E+02
4.64587737548E+08	-7.24625653002E-01	9.66370080369E+01
4.66388077616E+08	-7.24309161877E-01	9.08188167076E+01
4.68188417684E+08	-7.25559976764E-01	8.49809347481E+01
4.69988757752E+08	-7.26277111085E-01	7.91445840497E+01
4.71789097820E+08	-7.22970952399E-01	7.33175034963E+01
4.73589437888E+08	-7.22640739679E-01	6.74602309165E+01
4.75389777956E+08	-7.22547923616E-01	6.16187981404E+01
4.77190118024E+08	-7.21093147416E-01	5.57674738843E+01
4.78990458092E+08	-7.19462379950E-01	4.98930361366E+01
4.80790798160E+08	-7.18627078673E-01	4.40271664547E+01
4.82591138228E+08	-7.15462834682E-01	3.81622138485E+01
4.84391478296E+08	-7.11430373715E-01	3.22935813677E+01
4.86191818364E+08	-7.10033009310E-01	2.63887401793E+01
4.87992158432E+08	-7.07507161752E-01	2.04976346473E+01
4.89792498500E+08	-7.03979931806E-01	1.46056801737E+01
4.91592838568E+08	-7.01053563806E-01	8.69417928951E+00
4.93393178636E+08	-6.98470519335E-01	2.78490659475E+00
4.95193518704E+08	-6.96142555173E-01	-3.13049483652E+00
4.96993858772E+08	-6.93680512788E-01	-9.05631400841E+00
4.98794198840E+08	-6.91860184846E-01	-1.49965358038E+01
5.00594538908E+08	-6.89396773536E-01	-2.09157499355E+01
5.02394878976E+08	-6.86340648657E-01	-2.68710076188E+01
5.04195219044E+08	-6.81435090047E-01	-3.28189436578E+01
5.05995559112E+08	-6.81539053485E-01	-3.87683571787E+01
5.07795899180E+08	-6.79617803720E-01	-4.47313875464E+01
5.09596239248E+08	-6.79161478337E-01	-5.06770285245E+01
5.11396579316E+08	-6.78548745425E-01	-5.66527999662E+01
5.13196919384E+08	-6.77271434653E-01	-6.26031051766E+01
5.14997259452E+08	-6.77123940077E-01	-6.85635507130E+01
5.16797599520E+08	-6.78803790056E-01	-7.45450558641E+01
5.18597939588E+08	-6.78087727059E-01	-8.05053190483E+01
5.20398279656E+08	-6.79012027288E-01	-8.64680990091E+01
5.22198619724E+08	-6.82720044586E-01	-9.24411299990E+01
5.23998959792E+08	-6.85071981588E-01	-9.83946929645E+01
5.25799299860E+08	-6.86208171673E-01	-1.04344716358E+02
5.27599639928E+08	-6.89673041594E-01	-1.10296134589E+02
5.29399979996E+08	-6.91950600677E-01	-1.16250427094E+02
5.31200320064E+08	-6.95785333271E-01	-1.22180495363E+02
5.33000660132E+08	-6.99250584938E-01	-1.28136818916E+02
5.34801000200E+08	-7.03346796127E-01	-1.34074477201E+02
5.36601340268E+08	-7.08642949278E-01	-1.39995127073E+02
5.38401680336E+08	-7.14407648694E-01	-1.45924696915E+02
5.40202020404E+08	-7.17252513603E-01	-1.51830959492E+02
5.42002360472E+08	-7.23399698111E-01	-1.57742760862E+02
5.43802700540E+08	-7.25363359759E-01	-1.63644826701E+02
5.45603040608E+08	-7.32487513246E-01	-1.69554572101E+02
5.47403380676E+08	-7.37537093502E-01	-1.75423896542E+02
5.49203720744E+08	-7.41096996768E-01	1.78685350229E+02
5.51004060812E+08	-7.46444374270E-01	1.72802866130E+02
5.52804400880E+08	-7.52512966686E-01	1.66953650935E+02
5.54604740948E+08	-7.53437532935E-01	1.61081187922E+02
5.56405081016E+08	-7.59942899296E-01	1.55228562552E+02
5.58205421084E+08	-7.65423835397E-01	1.49389012601E+02
5.60005761152E+08	-7.72115956748E-01	1.43532847189E+02
5.61806101220E+08	-7.72070323100E-01	1.37686201783E+02
5.63606441288E+08	-7.76375589775E-01	1.31866107928E+02
5.65406781356E+08	-7.76740428861E-01	1.26029527178E+02
5.67207121424E+08	-7.81812669238E-01	1.20181141918E+02
5.69007461492E+08	-7.83430015007E-01	1.14361649170E+02
5.70807801560E+08	-7.87236322957E-01	1.08548884366E+02
5.72608141628E+08	-7.89664756717E-01	1.02724386685E+02
5.74408481696E+08	-7.86872215053E-01	9.68803866957E+01
5.76208821764E+08	-7.90545410884E-01	9.10587762682E+01
5.78009161832E+08	-7.87806487259E-01	8.52320534904E+01
5.79809501900E+08	-7.90336353541E-01	7.93899124214E+01
5.81609841968E+08	-7.85640790675E-01	7.35747034978E+01
5.83410182036E+08	-7.86559042629E-01	6.77310562380E+01
5.85210522104E+08	-7.85274467424E-01	6.19087793363E+01
5.87010862172E+08	-7.83687004335E-01	5.60634910600E+01
5.88811202240E+08	-7.80479370285E-01	5.02030885726E+01
5.90611542308E+08	-7.79614047851E-01	4.43651639112E+01
5.92411882376E+08	-7.75667465015E-01	3.85100891102E+01
5.94212222444E+08	-7.74969131936E-01	3.26570122766E+01
5.96012562513E+08	-7.71504482421E-01	2.67755076020E+01
5.97812902581E+08	-7.66345492406E-01	2.09017800095E+01
5.99613242649E+08	-7.64168365104E-01	1.50216428949E+01
6.01413582717E+08	-7.61264230743E-01	9.13782337652E+00
6.03213922785E+08	-7.57684612737E-01	3.23803013869E+00
6.05014262853E+08	-7.55121489165E-01	-2.66743572182E+00
6.06814602921E+08	-7.51138761543E-01	-8.57089486841E+00
6.08614942989E+08	-7.48413228349E-01	-1.44886248084E+01
6.10415283057E+08	-7.44534948402E-01	-2.04109305692E+01
6.12215623125E+08	-7.43042231729E-01	-2.63348594478E+01
6.14015963193E+08	-7.41016174401E-01	-3.22838551832E+01
6.15816303261E+08	-7.38997482620E-01	-3.82102158565E+01
6.17616643329E+08	-7.38038084944E-01	-4.41662933275E+01
6.19416983397E+08	-7.35296838991E-01	-5.01061058530E+01
6.21217323465E+08	-7.34556386899E-01	-5.60710075285E+01
6.23017663533E+08	-7.33809102273E-01	-6.20248259861E+01
6.24818003601E+08	-7.33331529791E-01	-6.79969716287E+01
6.26618343669E+08	-7.33536629151E-01	-7.39552604217E+01
6.28418683737E+08	-7.35488782341E-01	-7.99035910582E+01
6.30219023805E+08	-7.36361542780E-01	-8.58850720873E+01
6.32019363873E+08	-7.39060389986E-01	-9.18445111131E+01
6.33819703941E+08	-7.39736735523E-01	-9.78105040494E+01
6.35620044009E+08	-7.43890485609E-01	-1.03770641789E+02
6.37420384077E+08	-7.45122108866E-01	-1.09731122859E+02
6.39220724145E+08	-7.49776050683E-01	-1.15689252893E+02
6.41021064213E+08	-7.51482991366E-01	-1.21647166495E+02
6.42821404281E+08	-7.56529831423E-01	-1.27588437755E+02
