# Hz S DB R 50
! CMT, C1209, 21460007, 21.4.4/2
! Date: 4/14/2023 1:17:32 PM
! Data: Format (Calibration Info)
! Freq	S11:dB/Ang(--)
1.00000000000E+05	-8.12169042332E-02	1.79484804527E+02
1.90034006801E+06	-1.24537860615E-01	1.73245428526E+02
3.70068013603E+06	-1.54183411419E-01	1.67115775503E+02
5.50102020404E+06	-1.74234050711E-01	1.61046399266E+02
7.30136027205E+06	-1.91990024680E-01	1.55012678140E+02
9.10170034007E+06	-2.06728908274E-01	1.48993155286E+02
1.09020404081E+07	-2.21239289084E-01	1.42927390735E+02
1.27023804761E+07	-2.33100292689E-01	1.36938144741E+02
1.45027205441E+07	-2.43042091543E-01	1.30960461870E+02
1.63030606121E+07	-2.51545252268E-01	1.24931821048E+02
1.81034006801E+07	-2.62003122827E-01	1.18930004124E+02
1.99037407481E+07	-2.67632956358E-01	1.12911731898E+02
2.17040808162E+07	-2.72365137825E-01	1.06911287674E+02
2.35044208842E+07	-2.78976916282E-01	1.00907371680E+02
2.53047609522E+07	-2.82604901419E-01	9.48798006975E+01
2.71051010202E+07	-2.86530270768E-01	8.88884675804E+01
2.89054410882E+07	-2.88756036942E-01	8.28562676493E+01
3.07057811562E+07	-2.90509363115E-01	7.68605486299E+01
3.25061212242E+07	-2.92993882210E-01	7.08195648602E+01
3.43064612923E+07	-2.93929017130E-01	6.47923559507E+01
3.61068013603E+07	-2.94094743539E-01	5.87525336642E+01
3.79071414283E+07	-2.96025203240E-01	5.27024092387E+01
3.97074814963E+07	-2.95519687738E-01	4.66636524208E+01
4.15078215643E+07	-2.93533547709E-01	4.06205195338E+01
4.33081616323E+07	-2.93600121733E-01	3.45600922365E+01
4.51085017003E+07	-2.93363745997E-01	2.85029703323E+01
4.69088417684E+07	-2.87836114401E-01	2.24400721044E+01
4.87091818364E+07	-2.90195529046E-01	1.63779678735E+01
5.05095219044E+07	-2.87748332598E-01	1.03091960967E+01
5.23098619724E+07	-2.85311297550E-01	4.23667866810E+00
5.41102020404E+07	-2.84478625151E-01	-1.85212079998E+00
5.59105421084E+07	-2.83477488063E-01	-7.91805670542E+00
5.77108821764E+07	-2.85355834285E-01	-1.39956309343E+01
5.95112222444E+07	-2.83650830236E-01	-2.00557749112E+01
6.13115623125E+07	-2.84798396622E-01	-2.61464730357E+01
6.31119023805E+07	-2.82428671947E-01	-3.22225173715E+01
6.49122424485E+07	-2.84708970430E-01	-3.82783160104E+01
6.67125825165E+07	-2.85176468558E-01	-4.43583181501E+01
6.85129225845E+07	-2.84954184707E-01	-5.04101779047E+01
7.03132626525E+07	-2.89477823659E-01	-5.64912955528E+01
7.21136027205E+07	-2.90886483021E-01	-6.25396798668E+01
7.39139427886E+07	-2.94158985275E-01	-6.85930255188E+01
7.57142828566E+07	-2.97537292855E-01	-7.46423588034E+01
7.75146229246E+07	-3.04478536001E-01	-8.06739665517E+01
7.93149629926E+07	-3.07169134318E-01	-8.67170203311E+01
8.11153030606E+07	-3.12835547804E-01	-9.27572479059E+01
8.29156431286E+07	-3.19513966449E-01	-9.87783346261E+01
8.47159831966E+07	-3.24429844920E-01	-1.04795312906E+02
8.65163232647E+07	-3.31088443551E-01	-1.10804693351E+02
8.83166633327E+07	-3.38482847377E-01	-1.16810846151E+02
9.01170034007E+07	-3.47393389011E-01	-1.22798749326E+02
9.19173434687E+07	-3.53746011822E-01	-1.28806942412E+02
9.37176835367E+07	-3.62103218338E-01	-1.34773048906E+02
9.55180236047E+07	-3.69219648379E-01	-1.40751505393E+02
9.73183636727E+07	-3.78324010298E-01	-1.46737915159E+02
9.91187037407E+07	-3.89477466093E-01	-1.52696545434E+02
1.00919043809E+08	-3.96923666966E-01	-1.58654778840E+02
1.02719383877E+08	-4.05908914713E-01	-1.64623670803E+02
1.04519723945E+08	-4.13475408211E-01	-1.70557792837E+02
1.06320064013E+08	-4.21838389547E-01	-1.76504670333E+02
1.08120404081E+08	-4.31029768796E-01	1.77536344568E+02
1.09920744149E+08	-4.39193883460E-01	1.71590800495E+02
1.11721084217E+08	-4.49459247059E-01	1.65660394156E+02
1.13521424285E+08	-4.56529392401E-01	1.59712424070E+02
1.15321764353E+08	-4.65760569083E-01	1.53773827330E+02
1.17122104421E+08	-4.71554561493E-01	1.47829779656E+02
1.18922444489E+08	-4.81510261452E-01	1.41894148403E+02
1.20722784557E+08	-4.87291240063E-01	1.35951980700E+02
1.22523124625E+08	-4.93798167794E-01	1.29993163058E+02
1.24323464693E+08	-4.98493189449E-01	1.24049457507E+02
1.26123804761E+08	-5.03722668431E-01	1.18105155246E+02
1.27924144829E+08	-5.09660501897E-01	1.12141786057E+02
1.29724484897E+08	-5.13027939940E-01	1.06181586942E+02
1.31524824965E+08	-5.17470108049E-01	1.00217123513E+02
1.33325165033E+08	-5.20627024373E-01	9.42545538799E+01
1.35125505101E+08	-5.23524170584E-01	8.82782021893E+01
1.36925845169E+08	-5.27015183586E-01	8.22849406314E+01
1.38726185237E+08	-5.30203829542E-01	7.63026380562E+01
1.40526525305E+08	-5.32250531762E-01	7.03064600428E+01
1.42326865373E+08	-5.32508613703E-01	6.43059656121E+01
1.44127205441E+08	-5.31937809061E-01	5.82973020614E+01
1.45927545509E+08	-5.33675718768E-01	5.22870258936E+01
1.47727885577E+08	-5.35111921137E-01	4.62572405938E+01
1.49528225645E+08	-5.33586054436E-01	4.02300656539E+01
1.51328565713E+08	-5.31063054284E-01	3.42001846468E+01
1.53128905781E+08	-5.32489810302E-01	2.81644042221E+01
1.54929245849E+08	-5.31014323737E-01	2.21301708228E+01
1.56729585917E+08	-5.31126257671E-01	1.60739004422E+01
1.58529925985E+08	-5.29574262105E-01	1.00138663091E+01
1.60330266053E+08	-5.28297864790E-01	3.95397768761E+00
1.62130606121E+08	-5.26133703824E-01	-2.10128792687E+00
1.63930946189E+08	-5.24273165941E-01	-8.15516238160E+00
1.65731286257E+08	-5.25012612010E-01	-1.42162634147E+01
1.67531626325E+08	-5.23657979813E-01	-2.02797895359E+01
1.69331966393E+08	-5.22275123043E-01	-2.63607286311E+01
1.71132306461E+08	-5.22733377271E-01	-3.24232317636E+01
1.72932646529E+08	-5.20244956797E-01	-3.84929087878E+01
1.74732986597E+08	-5.21481224270E-01	-4.45380637178E+01
1.76533326665E+08	-5.20664423543E-01	-5.06111167991E+01
1.78333666733E+08	-5.21186960969E-01	-5.66685641935E+01
1.80134006801E+08	-5.20973275084E-01	-6.27253655844E+01
1.81934346869E+08	-5.26154530691E-01	-6.87715661153E+01
1.83734686937E+08	-5.25494894069E-01	-7.48109142582E+01
1.85535027005E+08	-5.28350258787E-01	-8.08537760424E+01
1.87335367073E+08	-5.32161181319E-01	-8.68737642092E+01
1.89135707141E+08	-5.36580607038E-01	-9.29091923795E+01
1.90936047209E+08	-5.38012670511E-01	-9.89281169699E+01
1.92736387277E+08	-5.42853339581E-01	-1.04938528988E+02
1.94536727345E+08	-5.46726070630E-01	-1.10944835042E+02
1.96337067413E+08	-5.52088240369E-01	-1.16958473064E+02
1.98137407481E+08	-5.57055292622E-01	-1.22946428008E+02
1.99937747550E+08	-5.60049169623E-01	-1.28938337907E+02
2.01738087618E+08	-5.67396203881E-01	-1.34914459778E+02
2.03538427686E+08	-5.73091266767E-01	-1.40887791523E+02
2.05338767754E+08	-5.78460841101E-01	-1.46843508330E+02
2.07139107822E+08	-5.85602869237E-01	-1.52811933434E+02
2.08939447890E+08	-5.91919403801E-01	-1.58769641111E+02
2.10739787958E+08	-5.97820579427E-01	-1.64709193819E+02
2.12540128026E+08	-6.05351277131E-01	-1.70649519112E+02
2.14340468094E+08	-6.11560807278E-01	-1.76586626468E+02
2.16140808162E+08	-6.16973921512E-01	1.77474954815E+02
2.17941148230E+08	-6.25541644351E-01	1.71535043198E+02
2.19741488298E+08	-6.30134127851E-01	1.65612032231E+02
2.21541828366E+08	-6.35942269876E-01	1.59681685323E+02
2.23342168434E+08	-6.42724509534E-01	1.53768710648E+02
2.25142508502E+08	-6.48934290050E-01	1.47847085912E+02
2.26942848570E+08	-6.52021102008E-01	1.41908215508E+02
2.28743188638E+08	-6.58053150639E-01	1.35990560058E+02
2.30543528706E+08	-6.63600367414E-01	1.30062945420E+02
2.32343868774E+08	-6.67337871113E-01	1.24143962498E+02
2.34144208842E+08	-6.72783667920E-01	1.18212223301E+02
2.35944548910E+08	-6.76425493776E-01	1.12285099647E+02
2.37744888978E+08	-6.78394742862E-01	1.06336130383E+02
2.39545229046E+08	-6.82070493212E-01	1.00389382446E+02
2.41345569114E+08	-6.84033263175E-01	9.44462595195E+01
2.43145909182E+08	-6.86464895366E-01	8.84961418434E+01
2.44946249250E+08	-6.88861703747E-01	8.25332677376E+01
2.46746589318E+08	-6.89908749874E-01	7.65576944087E+01
2.48546929386E+08	-6.92309912204E-01	7.05969083958E+01
2.50347269454E+08	-6.90651703904E-01	6.46314162014E+01
2.52147609522E+08	-6.91704601669E-01	5.86192526250E+01
2.53947949590E+08	-6.89143253642E-01	5.26379347906E+01
2.55748289658E+08	-6.89439567872E-01	4.66415906456E+01
2.57548629726E+08	-6.90194133431E-01	4.06387177678E+01
2.59348969794E+08	-6.86328904292E-01	3.46073425961E+01
2.61149309862E+08	-6.84613433106E-01	2.85927482459E+01
2.62949649930E+08	-6.85225199117E-01	2.25710801830E+01
2.64749989998E+08	-6.82790864741E-01	1.65500557113E+01
2.66550330066E+08	-6.81048777284E-01	1.05067479597E+01
2.68350670134E+08	-6.74710547530E-01	4.45072836856E+00
2.70151010202E+08	-6.76567255688E-01	-1.59992478047E+00
2.71951350270E+08	-6.73695208980E-01	-7.66235300189E+00
2.73751690338E+08	-6.70803767324E-01	-1.36989769208E+01
2.75552030406E+08	-6.71375824657E-01	-1.97533570817E+01
2.77352370474E+08	-6.67516332393E-01	-2.58269862437E+01
2.79152710542E+08	-6.66061693710E-01	-3.18806858011E+01
2.80953050610E+08	-6.67561773168E-01	-3.79411959426E+01
2.82753390678E+08	-6.64389366579E-01	-4.40029214247E+01
2.84553730746E+08	-6.63819933433E-01	-5.00586960705E+01
2.86354070814E+08	-6.64288898930E-01	-5.61252433537E+01
2.88154410882E+08	-6.63010292428E-01	-6.21778548878E+01
2.89954750950E+08	-6.64137494687E-01	-6.82414348439E+01
2.91755091018E+08	-6.66361948960E-01	-7.42863403914E+01
2.93555431086E+08	-6.67241394665E-01	-8.03445463052E+01
2.95355771154E+08	-6.67720624041E-01	-8.63688177664E+01
2.97156111222E+08	-6.70688044783E-01	-9.24080849570E+01
2.98956451290E+08	-6.70866631524E-01	-9.84336195343E+01
3.00756791358E+08	-6.73573741849E-01	-1.04465418051E+02
3.02557131426E+08	-6.78989606115E-01	-1.10477702010E+02
3.04357471494E+08	-6.82401227529E-01	-1.16491889703E+02
3.06157811562E+08	-6.87957845747E-01	-1.22502140727E+02
3.07958151630E+08	-6.89975762929E-01	-1.28480599850E+02
3.09758491698E+08	-6.95926659259E-01	-1.34464963163E+02
3.11558831766E+08	-7.00325794747E-01	-1.40457064249E+02
3.13359171834E+08	-7.05534550689E-01	-1.46424734604E+02
3.15159511902E+08	-7.09759996697E-01	-1.52390393124E+02
3.16959851970E+08	-7.16592241831E-01	-1.58348884009E+02
3.18760192038E+08	-7.20443121313E-01	-1.64299639581E+02
3.20560532106E+08	-7.24173382889E-01	-1.70234201559E+02
3.22360872174E+08	-7.30340639659E-01	-1.76188488106E+02
3.24161212242E+08	-7.37072328704E-01	1.77869463140E+02
3.25961552310E+08	-7.43022822369E-01	1.71950022225E+02
3.27761892378E+08	-7.48591637284E-01	1.66028584320E+02
3.29562232446E+08	-7.52974694897E-01	1.60112225842E+02
3.31362572515E+08	-7.57647536348E-01	1.54189195389E+02
3.33162912583E+08	-7.62468928063E-01	1.48272320167E+02
3.34963252651E+08	-7.68368757145E-01	1.42345789102E+02
3.36763592719E+08	-7.71995101009E-01	1.36439684031E+02
3.38563932787E+08	-7.77190376025E-01	1.30538700054E+02
3.40364272855E+08	-7.80421871430E-01	1.24616082828E+02
3.42164612923E+08	-7.83572635194E-01	1.18706440859E+02
3.43964952991E+08	-7.84097018819E-01	1.12800211292E+02
3.45765293059E+08	-7.86632890375E-01	1.06877775339E+02
3.47565633127E+08	-7.90064082982E-01	1.00940957180E+02
3.49365973195E+08	-7.92201800033E-01	9.50200471946E+01
3.51166313263E+08	-7.93069547935E-01	8.91059840843E+01
3.52966653331E+08	-7.95748234757E-01	8.31668367659E+01
3.54766993399E+08	-7.96399625604E-01	7.72323162617E+01
3.56567333467E+08	-7.95665171090E-01	7.12761153775E+01
3.58367673535E+08	-7.96797382710E-01	6.53201641629E+01
3.60168013603E+08	-7.94800763772E-01	5.93738681621E+01
3.61968353671E+08	-7.93579502484E-01	5.33987323608E+01
3.63768693739E+08	-7.93191628586E-01	4.74399135710E+01
3.65569033807E+08	-7.92484190695E-01	4.14602301651E+01
3.67369373875E+08	-7.91009758868E-01	3.54645043564E+01
3.69169713943E+08	-7.88811508069E-01	2.94788578729E+01
3.70970054011E+08	-7.86017114342E-01	2.34934583904E+01
3.72770394079E+08	-7.83201296053E-01	1.74676818923E+01
3.74570734147E+08	-7.83353808721E-01	1.14639584175E+01
3.76371074215E+08	-7.76384388779E-01	5.44401850729E+00
3.78171414283E+08	-7.76441602535E-01	-5.80238732953E-01
3.79971754351E+08	-7.73893431493E-01	-6.60844628728E+00
3.81772094419E+08	-7.71176146649E-01	-1.26480921039E+01
3.83572434487E+08	-7.68468754086E-01	-1.86947186473E+01
3.85372774555E+08	-7.67784714315E-01	-2.47369118745E+01
3.87173114623E+08	-7.65571262260E-01	-3.07781973881E+01
3.88973454691E+08	-7.63145477750E-01	-3.68324960887E+01
3.90773794759E+08	-7.63205050087E-01	-4.28822893740E+01
3.92574134827E+08	-7.60956035927E-01	-4.89405270502E+01
3.94374474895E+08	-7.61046086644E-01	-5.49959814744E+01
3.96174814963E+08	-7.63275079307E-01	-6.10415715691E+01
3.97975155031E+08	-7.59683009026E-01	-6.71036048494E+01
3.99775495099E+08	-7.59367117371E-01	-7.31550233980E+01
4.01575835167E+08	-7.61184107009E-01	-7.91937803939E+01
4.03376175235E+08	-7.61212313215E-01	-8.52295205593E+01
4.05176515303E+08	-7.62443181613E-01	-9.12776468700E+01
4.06976855371E+08	-7.66405090165E-01	-9.73035215845E+01
4.08777195439E+08	-7.65428412212E-01	-1.03360301240E+02
4.10577535507E+08	-7.68223503328E-01	-1.09382180763E+02
4.12377875575E+08	-7.71843858335E-01	-1.15401796954E+02
4.14178215643E+08	-7.77649384785E-01	-1.21425559413E+02
4.15978555711E+08	-7.81214119972E-01	-1.27428122184E+02
4.17778895779E+08	-7.81665658349E-01	-1.33419512147E+02
4.19579235847E+08	-7.86010387507E-01	-1.39419551354E+02
4.21379575915E+08	-7.92433635881E-01	-1.45408614010E+02
4.23179915983E+08	-7.98897696081E-01	-1.51392890272E+02
4.24980256051E+08	-8.02891358674E-01	-1.57352811216E+02
4.26780596119E+08	-8.07100042405E-01	-1.63334520616E+02
4.28580936187E+08	-8.13802930069E-01	-1.69295453098E+02
4.30381276255E+08	-8.17563117717E-01	-1.75228142672E+02
4.32181616323E+08	-8.22472004650E-01	1.78804587153E+02
4.33981956391E+08	-8.28053451230E-01	1.72875253837E+02
4.35782296459E+08	-8.32815601164E-01	1.66941507964E+02
4.37582636527E+08	-8.36705601000E-01	1.61005750886E+02
4.39382976595E+08	-8.42546032177E-01	1.55089900379E+02
4.41183316663E+08	-8.46105501714E-01	1.49155203657E+02
4.42983656731E+08	-8.50990804684E-01	1.43240534671E+02
4.44783996799E+08	-8.55112742099E-01	1.37325115479E+02
4.46584336867E+08	-8.58441072162E-01	1.31416535651E+02
4.48384676935E+08	-8.63215597514E-01	1.25497311143E+02
4.50185017003E+08	-8.65763548886E-01	1.19589904074E+02
4.51985357071E+08	-8.67383802412E-01	1.13687845388E+02
4.53785697139E+08	-8.68596433397E-01	1.07781640453E+02
4.55586037207E+08	-8.69924954467E-01	1.01874395007E+02
4.57386377275E+08	-8.71389738444E-01	9.59420236639E+01
4.59186717343E+08	-8.74349054281E-01	9.00290896307E+01
4.60987057411E+08	-8.75236911242E-01	8.41228093281E+01
4.62787397479E+08	-8.75237030000E-01	7.82035908812E+01
4.64587737548E+08	-8.75872890724E-01	7.22590269193E+01
4.66388077616E+08	-8.76181009821E-01	6.63412015374E+01
4.68188417684E+08	-8.73298590480E-01	6.04097841659E+01
4.69988757752E+08	-8.71789760334E-01	5.44571331716E+01
4.71789097820E+08	-8.70819347999E-01	4.85158403350E+01
4.73589437888E+08	-8.69117949075E-01	4.25604288061E+01
4.75389777956E+08	-8.65796312544E-01	3.65916887154E+01
4.77190118024E+08	-8.65741369238E-01	3.06420788820E+01
4.78990458092E+08	-8.62842931837E-01	2.46514664101E+01
4.80790798160E+08	-8.58872463548E-01	1.86616378255E+01
4.82591138228E+08	-8.56139268598E-01	1.26724422693E+01
4.84391478296E+08	-8.53755312492E-01	6.68790043043E+00
4.86191818364E+08	-8.52744249724E-01	6.67867524780E-01
4.87992158432E+08	-8.49206722493E-01	-5.33318525020E+00
4.89792498500E+08	-8.47083289721E-01	-1.13463544010E+01
4.91592838568E+08	-8.43173636420E-01	-1.73741920651E+01
4.93393178636E+08	-8.42835517779E-01	-2.34171810231E+01
4.95193518704E+08	-8.38016488603E-01	-2.94356869010E+01
4.96993858772E+08	-8.36896672467E-01	-3.54707675363E+01
4.98794198840E+08	-8.35421456094E-01	-4.14981691033E+01
5.00594538908E+08	-8.33437941310E-01	-4.75535667373E+01
5.02394878976E+08	-8.31148104269E-01	-5.35998028934E+01
5.04195219044E+08	-8.30461849376E-01	-5.96567373365E+01
5.05995559112E+08	-8.34434568190E-01	-6.56889127959E+01
5.07795899180E+08	-8.33628986776E-01	-7.17490956297E+01
5.09596239248E+08	-8.32218284777E-01	-7.78065872498E+01
5.11396579316E+08	-8.33861964255E-01	-8.38576508171E+01
5.13196919384E+08	-8.36181661484E-01	-8.99233255335E+01
5.14997259452E+08	-8.35690017485E-01	-9.59495454419E+01
5.16797599520E+08	-8.37539363502E-01	-1.01990611241E+02
5.18597939588E+08	-8.40077849567E-01	-1.08016855614E+02
5.20398279656E+08	-8.42766110751E-01	-1.14058427043E+02
5.22198619724E+08	-8.45125040965E-01	-1.20096321192E+02
5.23998959792E+08	-8.50622116755E-01	-1.26129769685E+02
5.25799299860E+08	-8.53232890969E-01	-1.32136515997E+02
5.27599639928E+08	-8.57808357709E-01	-1.38155587093E+02
5.29399979996E+08	-8.60508372393E-01	-1.44150673763E+02
5.31200320064E+08	-8.65168151634E-01	-1.50154117313E+02
5.33000660132E+08	-8.70265053390E-01	-1.56148323316E+02
5.34801000200E+08	-8.77097303577E-01	-1.62127703299E+02
5.36601340268E+08	-8.80346077341E-01	-1.68099719370E+02
5.38401680336E+08	-8.84648309091E-01	-1.74079071620E+02
5.40202020404E+08	-8.91865831890E-01	1.79956508429E+02
5.42002360472E+08	-8.95120839769E-01	1.73999873243E+02
5.43802700540E+08	-8.97517744763E-01	1.68055422192E+02
5.45603040608E+08	-9.03472655073E-01	1.62101166452E+02
5.47403380676E+08	-9.09272816526E-01	1.56170054368E+02
5.49203720744E+08	-9.13184444300E-01	1.50243020468E+02
5.51004060812E+08	-9.16209818805E-01	1.44306841862E+02
5.52804400880E+08	-9.20311555577E-01	1.38393154304E+02
5.54604740948E+08	-9.26815866589E-01	1.32465735070E+02
5.56405081016E+08	-9.27273692786E-01	1.26543302195E+02
5.58205421084E+08	-9.29187921677E-01	1.20649360365E+02
5.60005761152E+08	-9.31108182868E-01	1.14740632622E+02
5.61806101220E+08	-9.34595487075E-01	1.08827617097E+02
5.63606441288E+08	-9.34972130214E-01	1.02925017904E+02
5.65406781356E+08	-9.37154619448E-01	9.70264709112E+01
5.67207121424E+08	-9.39992933148E-01	9.11186339557E+01
5.69007461492E+08	-9.37224263931E-01	8.52065352624E+01
5.70807801560E+08	-9.38805942016E-01	7.93014512986E+01
5.72608141628E+08	-9.37875571278E-01	7.33878618041E+01
5.74408481696E+08	-9.37046070482E-01	6.74730606773E+01
5.76208821764E+08	-9.34456920212E-01	6.15544997053E+01
5.78009161832E+08	-9.33736711538E-01	5.56195025693E+01
5.79809501900E+08	-9.31430732727E-01	4.96961417587E+01
5.81609841968E+08	-9.29946642100E-01	4.37558253712E+01
5.83410182036E+08	-9.28009930680E-01	3.78118592478E+01
5.85210522104E+08	-9.25571610193E-01	3.18802990861E+01
5.87010862172E+08	-9.23710201286E-01	2.59237061847E+01
5.88811202240E+08	-9.20408962792E-01	1.99598095979E+01
5.90611542308E+08	-9.18233355729E-01	1.40025752530E+01
5.92411882376E+08	-9.14897324955E-01	8.02985413413E+00
5.94212222444E+08	-9.10016588013E-01	2.05422256055E+00
5.96012562513E+08	-9.05361740004E-01	-3.94213629632E+00
5.97812902581E+08	-9.03315406363E-01	-9.92341610115E+00
5.99613242649E+08	-9.01778994889E-01	-1.59307059772E+01
6.01413582717E+08	-8.97893966221E-01	-2.19354146129E+01
6.03213922785E+08	-8.96031534213E-01	-2.79505257262E+01
6.05014262853E+08	-8.93233652403E-01	-3.39668888497E+01
6.06814602921E+08	-8.91425394688E-01	-4.00107661996E+01
6.08614942989E+08	-8.90978703677E-01	-4.60299439715E+01
6.10415283057E+08	-8.88980424703E-01	-5.20746621474E+01
6.12215623125E+08	-8.87457310552E-01	-5.81068218115E+01
6.14015963193E+08	-8.85178481070E-01	-6.41435016229E+01
6.15816303261E+08	-8.87240392406E-01	-7.01862409695E+01
6.17616643329E+08	-8.88852902740E-01	-7.62336188267E+01
6.19416983397E+08	-8.87251577140E-01	-8.22834537409E+01
6.21217323465E+08	-8.88964138081E-01	-8.83309235199E+01
6.23017663533E+08	-8.89425110264E-01	-9.43884356994E+01
6.24818003601E+08	-8.91617840496E-01	-1.00420094726E+02
6.26618343669E+08	-8.93689718067E-01	-1.06469860282E+02
6.28418683737E+08	-8.98097460537E-01	-1.12511846568E+02
6.30219023805E+08	-9.01571904089E-01	-1.18531018044E+02
6.32019363873E+08	-9.03583023438E-01	-1.24567689826E+02
6.33819703941E+08	-9.08436888113E-01	-1.30600873719E+02
6.35620044009E+08	-9.11656406039E-01	-1.36620958384E+02
6.37420384077E+08	-9.16200782079E-01	-1.42643520665E+02
6.39220724145E+08	-9.20185556703E-01	-1.48649767327E+02
6.41021064213E+08	-9.25921446793E-01	-1.54649795902E+02
6.42821404281E+08	-9.29727247066E-01	-1.60660068624E+02
