# Hz S DB R 50
! CMT, C1209, 21460007, 21.4.4/2
! Date: 4/14/2023 1:23:20 PM
! Data: Format (Calibration Info)
! Freq	S11:dB/Ang(--)
1.00000000000E+05	-1.54851556161E-02	1.79468234801E+02
1.90034006801E+06	-6.94628741287E-02	1.73364371770E+02
3.70068013603E+06	-9.44832719666E-02	1.67354310524E+02
5.50102020404E+06	-1.16154413424E-01	1.61409990203E+02
7.30136027205E+06	-1.33730140801E-01	1.55488818014E+02
9.10170034007E+06	-1.48134941100E-01	1.49554104777E+02
1.09020404081E+07	-1.62063681940E-01	1.43680746380E+02
1.27023804761E+07	-1.71701632606E-01	1.37739373326E+02
1.45027205441E+07	-1.82258870503E-01	1.31856933096E+02
1.63030606121E+07	-1.89414001456E-01	1.25939323280E+02
1.81034006801E+07	-1.98489070589E-01	1.20033832986E+02
1.99037407481E+07	-2.03517608439E-01	1.14156454932E+02
2.17040808162E+07	-2.10329627349E-01	1.08261969689E+02
2.35044208842E+07	-2.15896441479E-01	1.02333601691E+02
2.53047609522E+07	-2.18201300775E-01	9.64469626491E+01
2.71051010202E+07	-2.21390308693E-01	9.05354786033E+01
2.89054410882E+07	-2.23686488495E-01	8.46384232026E+01
3.07057811562E+07	-2.25582584983E-01	7.87381039550E+01
3.25061212242E+07	-2.25737777449E-01	7.27936650854E+01
3.43064612923E+07	-2.26795628939E-01	6.68826406476E+01
3.61068013603E+07	-2.25082566407E-01	6.09550689251E+01
3.79071414283E+07	-2.24877990507E-01	5.50093178825E+01
3.97074814963E+07	-2.25137841213E-01	4.90829411092E+01
4.15078215643E+07	-2.24390059064E-01	4.31445295226E+01
4.33081616323E+07	-2.22401285803E-01	3.71926382644E+01
4.51085017003E+07	-2.19706881828E-01	3.12414612234E+01
4.69088417684E+07	-2.14595486457E-01	2.52920299249E+01
4.87091818364E+07	-2.15472824920E-01	1.93256295129E+01
5.05095219044E+07	-2.12532871289E-01	1.33721264276E+01
5.23098619724E+07	-2.09830195623E-01	7.40004019450E+00
5.41102020404E+07	-2.09440885311E-01	1.44183424434E+00
5.59105421084E+07	-2.08125880716E-01	-4.54168419724E+00
5.77108821764E+07	-2.05278973979E-01	-1.05033012681E+01
5.95112222444E+07	-2.04722161808E-01	-1.64792569432E+01
6.13115623125E+07	-2.02116349276E-01	-2.24539717165E+01
6.31119023805E+07	-2.02657602547E-01	-2.84184258261E+01
6.49122424485E+07	-2.02771607421E-01	-3.43748697998E+01
6.67125825165E+07	-2.00928400741E-01	-4.03517767762E+01
6.85129225845E+07	-2.02701205921E-01	-4.63167166285E+01
7.03132626525E+07	-2.05820786566E-01	-5.22866773599E+01
7.21136027205E+07	-2.04401231585E-01	-5.82447965376E+01
7.39139427886E+07	-2.07142775511E-01	-6.42084535468E+01
7.57142828566E+07	-2.09221955150E-01	-7.01527572121E+01
7.75146229246E+07	-2.13267970362E-01	-7.60969552130E+01
7.93149629926E+07	-2.16789380025E-01	-8.20315825233E+01
8.11153030606E+07	-2.20478417323E-01	-8.79665192661E+01
8.29156431286E+07	-2.24618502348E-01	-9.38999287773E+01
8.47159831966E+07	-2.30282495270E-01	-9.98290130163E+01
8.65163232647E+07	-2.36877891616E-01	-1.05729327069E+02
8.83166633327E+07	-2.44222526464E-01	-1.11638423661E+02
9.01170034007E+07	-2.49462602422E-01	-1.17550772205E+02
9.19173434687E+07	-2.56343634090E-01	-1.23438468440E+02
9.37176835367E+07	-2.61848363815E-01	-1.29331540412E+02
9.55180236047E+07	-2.68673594472E-01	-1.35226850302E+02
9.73183636727E+07	-2.75792112763E-01	-1.41111352633E+02
9.91187037407E+07	-2.85081697575E-01	-1.46973498980E+02
1.00919043809E+08	-2.93682928781E-01	-1.52831279485E+02
1.02719383877E+08	-3.01528101015E-01	-1.58702944594E+02
1.04519723945E+08	-3.09092525616E-01	-1.64554160559E+02
1.06320064013E+08	-3.18361986654E-01	-1.70412106430E+02
1.08120404081E+08	-3.25342470636E-01	-1.76266704681E+02
1.09920744149E+08	-3.33569259867E-01	1.77897846006E+02
1.11721084217E+08	-3.40862964211E-01	1.72044989490E+02
1.13521424285E+08	-3.48783551438E-01	1.66205831752E+02
1.15321764353E+08	-3.54725848264E-01	1.60351937337E+02
1.17122104421E+08	-3.64033814041E-01	1.54521137240E+02
1.18922444489E+08	-3.69623283678E-01	1.48675851470E+02
1.20722784557E+08	-3.76984465927E-01	1.42844536608E+02
1.22523124625E+08	-3.81172714575E-01	1.36985992539E+02
1.24323464693E+08	-3.88478888164E-01	1.31155676293E+02
1.26123804761E+08	-3.92057922714E-01	1.25289543662E+02
1.27924144829E+08	-3.97259910914E-01	1.19433246224E+02
1.29724484897E+08	-4.01357235462E-01	1.13584129866E+02
1.31524824965E+08	-4.08701007422E-01	1.07721277248E+02
1.33325165033E+08	-4.08542168688E-01	1.01845386370E+02
1.35125505101E+08	-4.11053884585E-01	9.59836330779E+01
1.36925845169E+08	-4.13845137535E-01	9.01181866487E+01
1.38726185237E+08	-4.17971709434E-01	8.42235565141E+01
1.40526525305E+08	-4.20076149949E-01	7.83350054543E+01
1.42326865373E+08	-4.20459034007E-01	7.24421118883E+01
1.44127205441E+08	-4.19712204864E-01	6.65397452317E+01
1.45927545509E+08	-4.19245974248E-01	6.06379337383E+01
1.47727885577E+08	-4.20150832224E-01	5.47127437003E+01
1.49528225645E+08	-4.20768209302E-01	4.88028902179E+01
1.51328565713E+08	-4.20261230504E-01	4.28898972624E+01
1.53128905781E+08	-4.17665829994E-01	3.69371531802E+01
1.54929245849E+08	-4.14847301749E-01	3.10045450572E+01
1.56729585917E+08	-4.15753998735E-01	2.50608614828E+01
1.58529925985E+08	-4.12120934237E-01	1.91289070414E+01
1.60330266053E+08	-4.12107521044E-01	1.31568532205E+01
1.62130606121E+08	-4.10409562623E-01	7.21426493889E+00
1.63930946189E+08	-4.07347165952E-01	1.22839433121E+00
1.65731286257E+08	-4.06691104267E-01	-4.72803931943E+00
1.67531626325E+08	-4.03750331396E-01	-1.06888501124E+01
1.69331966393E+08	-4.02339509911E-01	-1.66465318333E+01
1.71132306461E+08	-4.01517601739E-01	-2.26271401659E+01
1.72932646529E+08	-4.00414456058E-01	-2.85934634496E+01
1.74732986597E+08	-4.01191588339E-01	-3.45579355267E+01
1.76533326665E+08	-3.98233481939E-01	-4.05273595938E+01
1.78333666733E+08	-3.97157039595E-01	-4.64965989709E+01
1.80134006801E+08	-3.97146307894E-01	-5.24506988698E+01
1.81934346869E+08	-3.98823803135E-01	-5.84164956481E+01
1.83734686937E+08	-3.99356136825E-01	-6.43691831725E+01
1.85535027005E+08	-4.01194098127E-01	-7.03257413412E+01
1.87335367073E+08	-4.04054442700E-01	-7.62743226928E+01
1.89135707141E+08	-4.04711828460E-01	-8.22105304172E+01
1.90936047209E+08	-4.07167889693E-01	-8.81488891918E+01
1.92736387277E+08	-4.09479909098E-01	-9.40877275163E+01
1.94536727345E+08	-4.12738137234E-01	-1.00006778644E+02
1.96337067413E+08	-4.18448022557E-01	-1.05925941898E+02
1.98137407481E+08	-4.20756001682E-01	-1.11837742400E+02
1.99937747550E+08	-4.25473334270E-01	-1.17750392736E+02
2.01738087618E+08	-4.30024119331E-01	-1.23641031563E+02
2.03538427686E+08	-4.35059573088E-01	-1.29524080883E+02
2.05338767754E+08	-4.42430396093E-01	-1.35417203104E+02
2.07139107822E+08	-4.45676860966E-01	-1.41284641843E+02
2.08939447890E+08	-4.53147115842E-01	-1.47166811956E+02
2.10739787958E+08	-4.57926229669E-01	-1.53048512265E+02
2.12540128026E+08	-4.63864716196E-01	-1.58887238076E+02
2.14340468094E+08	-4.68138923053E-01	-1.64735942855E+02
2.16140808162E+08	-4.77264866984E-01	-1.70591557600E+02
2.17941148230E+08	-4.82906913554E-01	-1.76444731324E+02
2.19741488298E+08	-4.88358363546E-01	1.77714338346E+02
2.21541828366E+08	-4.94944878206E-01	1.71883600179E+02
2.23342168434E+08	-5.02181230437E-01	1.66047913129E+02
2.25142508502E+08	-5.06695105440E-01	1.60210040187E+02
2.26942848570E+08	-5.11270816775E-01	1.54381533882E+02
2.28743188638E+08	-5.18554029972E-01	1.48545645627E+02
2.30543528706E+08	-5.21730650729E-01	1.42726716365E+02
2.32343868774E+08	-5.26985573328E-01	1.36892811275E+02
2.34144208842E+08	-5.32644011020E-01	1.31064754905E+02
2.35944548910E+08	-5.34818083482E-01	1.25225568066E+02
2.37744888978E+08	-5.40017729176E-01	1.19394631659E+02
2.39545229046E+08	-5.42772908079E-01	1.13552726621E+02
2.41345569114E+08	-5.45214639502E-01	1.07703656528E+02
2.43145909182E+08	-5.47922311331E-01	1.01854929885E+02
2.44946249250E+08	-5.49469152710E-01	9.60021961235E+01
2.46746589318E+08	-5.51209132495E-01	9.01611554047E+01
2.48546929386E+08	-5.51182176986E-01	8.42783130774E+01
2.50347269454E+08	-5.53456925346E-01	7.84203013936E+01
2.52147609522E+08	-5.53954837351E-01	7.25405888785E+01
2.53947949590E+08	-5.54779558737E-01	6.66629187121E+01
2.55748289658E+08	-5.52879521337E-01	6.07664479278E+01
2.57548629726E+08	-5.52515677061E-01	5.48732770821E+01
2.59348969794E+08	-5.50213546500E-01	4.89754754307E+01
2.61149309862E+08	-5.51253123551E-01	4.30474278142E+01
2.62949649930E+08	-5.49407093174E-01	3.71530021811E+01
2.64749989998E+08	-5.47181607458E-01	3.12238818914E+01
2.66550330066E+08	-5.46404191805E-01	2.52948502375E+01
2.68350670134E+08	-5.43615419563E-01	1.93495342348E+01
2.70151010202E+08	-5.39763479370E-01	1.34172930308E+01
2.71951350270E+08	-5.37290158602E-01	7.45926981912E+00
2.73751690338E+08	-5.34490809623E-01	1.50990637685E+00
2.75552030406E+08	-5.34052382216E-01	-4.45574728933E+00
2.77352370474E+08	-5.31954178751E-01	-1.04132185364E+01
2.79152710542E+08	-5.29070469759E-01	-1.63730770249E+01
2.80953050610E+08	-5.26289949538E-01	-2.23303953766E+01
2.82753390678E+08	-5.24276240861E-01	-2.82945927079E+01
2.84553730746E+08	-5.23842571707E-01	-3.42660140207E+01
2.86354070814E+08	-5.22008178655E-01	-4.02371636232E+01
2.88154410882E+08	-5.20296196690E-01	-4.62054834813E+01
2.89954750950E+08	-5.20754433462E-01	-5.21853921777E+01
2.91755091018E+08	-5.19953403290E-01	-5.81536295671E+01
2.93555431086E+08	-5.18887670823E-01	-6.41170786544E+01
2.95355771154E+08	-5.20883728362E-01	-7.00738123087E+01
2.97156111222E+08	-5.21003289411E-01	-7.60254651156E+01
2.98956451290E+08	-5.22278859183E-01	-8.19846891881E+01
3.00756791358E+08	-5.25089674071E-01	-8.79256510458E+01
3.02557131426E+08	-5.25536488641E-01	-9.38676432618E+01
3.04357471494E+08	-5.26829746885E-01	-9.98122729453E+01
3.06157811562E+08	-5.30977272396E-01	-1.05742468254E+02
3.07958151630E+08	-5.34757807674E-01	-1.11669413557E+02
3.09758491698E+08	-5.37655202049E-01	-1.17582106608E+02
3.11558831766E+08	-5.41338400325E-01	-1.23503271386E+02
3.13359171834E+08	-5.46210736211E-01	-1.29398803859E+02
3.15159511902E+08	-5.49230343183E-01	-1.35300905100E+02
3.16959851970E+08	-5.54750495404E-01	-1.41187469951E+02
3.18760192038E+08	-5.59764036365E-01	-1.47072543671E+02
3.20560532106E+08	-5.65462425024E-01	-1.52933511732E+02
3.22360872174E+08	-5.70371791399E-01	-1.58805206703E+02
3.24161212242E+08	-5.76289427553E-01	-1.64667798886E+02
3.25961552310E+08	-5.80808317365E-01	-1.70533915558E+02
3.27761892378E+08	-5.87648719115E-01	-1.76380558166E+02
3.29562232446E+08	-5.91902304483E-01	1.77771997703E+02
3.31362572515E+08	-5.95594564501E-01	1.71929908623E+02
3.33162912583E+08	-6.03168874725E-01	1.66103909985E+02
3.34963252651E+08	-6.08632936397E-01	1.60270596021E+02
3.36763592719E+08	-6.13183870283E-01	1.54435489134E+02
3.38563932787E+08	-6.17014046711E-01	1.48615121417E+02
3.40364272855E+08	-6.21507867703E-01	1.42781849332E+02
3.42164612923E+08	-6.26237108369E-01	1.36966850005E+02
3.43964952991E+08	-6.30174869630E-01	1.31133153322E+02
3.45765293059E+08	-6.31250106945E-01	1.25313850172E+02
3.47565633127E+08	-6.38172338148E-01	1.19489962758E+02
3.49365973195E+08	-6.40362192796E-01	1.13662171984E+02
3.51166313263E+08	-6.42710376819E-01	1.07841534124E+02
3.52966653331E+08	-6.41564248356E-01	1.02004778060E+02
3.54766993399E+08	-6.43917069011E-01	9.61682769665E+01
3.56567333467E+08	-6.46510510513E-01	9.03371621275E+01
3.58367673535E+08	-6.47959169870E-01	8.44839849606E+01
3.60168013603E+08	-6.48190119197E-01	7.86395149204E+01
3.61968353671E+08	-6.47979860957E-01	7.27894496523E+01
3.63768693739E+08	-6.46619912741E-01	6.69286671155E+01
3.65569033807E+08	-6.46121802091E-01	6.10675045711E+01
3.67369373875E+08	-6.46915552577E-01	5.51766923704E+01
3.69169713943E+08	-6.45129553599E-01	4.93121490781E+01
3.70970054011E+08	-6.42868625840E-01	4.34221580808E+01
3.72770394079E+08	-6.40225955281E-01	3.75387998974E+01
3.74570734147E+08	-6.37779899031E-01	3.16374059595E+01
3.76371074215E+08	-6.35725500303E-01	2.57306007291E+01
3.78171414283E+08	-6.33282974272E-01	1.98039508524E+01
3.79971754351E+08	-6.32517584883E-01	1.38872373867E+01
3.81772094419E+08	-6.28932108540E-01	7.96942250379E+00
3.83572434487E+08	-6.26196567995E-01	2.02456190100E+00
3.85372774555E+08	-6.24961000948E-01	-3.90336483716E+00
3.87173114623E+08	-6.20797382400E-01	-9.84325571687E+00
3.88973454691E+08	-6.17957318131E-01	-1.57885541850E+01
3.90773794759E+08	-6.16730891433E-01	-2.17426960764E+01
3.92574134827E+08	-6.12977006152E-01	-2.77000612563E+01
3.94374474895E+08	-6.11252362994E-01	-3.36729006645E+01
3.96174814963E+08	-6.09658179398E-01	-3.96309002124E+01
3.97975155031E+08	-6.07835472985E-01	-4.55797287351E+01
3.99775495099E+08	-6.06484177640E-01	-5.15580279725E+01
4.01575835167E+08	-6.06684183201E-01	-5.75168283724E+01
4.03376175235E+08	-6.05986861237E-01	-6.34783194087E+01
4.05176515303E+08	-6.07130412692E-01	-6.94460551632E+01
4.06976855371E+08	-6.06323680653E-01	-7.54007075609E+01
4.08777195439E+08	-6.06933680726E-01	-8.13654652535E+01
4.10577535507E+08	-6.09899885076E-01	-8.73360517095E+01
4.12377875575E+08	-6.08548242018E-01	-9.32919208621E+01
4.14178215643E+08	-6.12323562345E-01	-9.92371351228E+01
4.15978555711E+08	-6.16174949489E-01	-1.05158249920E+02
4.17778895779E+08	-6.18146386233E-01	-1.11106030121E+02
4.19579235847E+08	-6.22391130625E-01	-1.17033748370E+02
4.21379575915E+08	-6.22797774939E-01	-1.22965142517E+02
4.23179915983E+08	-6.30636433056E-01	-1.28891603456E+02
4.24980256051E+08	-6.33372521590E-01	-1.34804017227E+02
4.26780596119E+08	-6.36361824636E-01	-1.40707390165E+02
4.28580936187E+08	-6.41923168187E-01	-1.46604029081E+02
4.30381276255E+08	-6.45581988985E-01	-1.52497161889E+02
4.32181616323E+08	-6.52847666924E-01	-1.58395465730E+02
4.33981956391E+08	-6.55334339105E-01	-1.64262420382E+02
4.35782296459E+08	-6.61546677080E-01	-1.70131039855E+02
4.37582636527E+08	-6.66961505120E-01	-1.75995213361E+02
4.39382976595E+08	-6.71735229579E-01	1.78137796120E+02
4.41183316663E+08	-6.76614304176E-01	1.72282324611E+02
4.42983656731E+08	-6.80712282887E-01	1.66433100060E+02
4.44783996799E+08	-6.87566633246E-01	1.60598179958E+02
4.46584336867E+08	-6.92507079973E-01	1.54755544128E+02
4.48384676935E+08	-6.94394577301E-01	1.48919564483E+02
4.50185017003E+08	-6.98683201312E-01	1.43088659269E+02
4.51985357071E+08	-7.05666227095E-01	1.37255799958E+02
4.53785697139E+08	-7.08480561097E-01	1.31429788708E+02
4.55586037207E+08	-7.11204873217E-01	1.25612819743E+02
4.57386377275E+08	-7.13814090490E-01	1.19783950538E+02
4.59186717343E+08	-7.15348248707E-01	1.13968410197E+02
4.60987057411E+08	-7.17082180737E-01	1.08138958874E+02
4.62787397479E+08	-7.21454993750E-01	1.02315681606E+02
4.64587737548E+08	-7.20930268474E-01	9.64876142753E+01
4.66388077616E+08	-7.21481037430E-01	9.06721584159E+01
4.68188417684E+08	-7.23051608073E-01	8.48217167372E+01
4.69988757752E+08	-7.21676537585E-01	7.89947708928E+01
4.71789097820E+08	-7.23338921799E-01	7.31401314155E+01
4.73589437888E+08	-7.23587510802E-01	6.73131348319E+01
4.75389777956E+08	-7.20861896019E-01	6.14620611028E+01
4.77190118024E+08	-7.21660538883E-01	5.56073654587E+01
4.78990458092E+08	-7.18102569093E-01	4.97501830428E+01
4.80790798160E+08	-7.17408976085E-01	4.38613570859E+01
4.82591138228E+08	-7.14291075162E-01	3.80152043591E+01
4.84391478296E+08	-7.11364923781E-01	3.21165893148E+01
4.86191818364E+08	-7.09521905302E-01	2.62358060269E+01
4.87992158432E+08	-7.06868776930E-01	2.03495727811E+01
4.89792498500E+08	-7.03092502294E-01	1.44421627333E+01
4.91592838568E+08	-7.01267834252E-01	8.54432497874E+00
4.93393178636E+08	-6.96544041277E-01	2.62068471603E+00
4.95193518704E+08	-6.94845290375E-01	-3.30008363680E+00
4.96993858772E+08	-6.93566805139E-01	-9.22410275447E+00
4.98794198840E+08	-6.88997774999E-01	-1.51632444629E+01
5.00594538908E+08	-6.87812795911E-01	-2.10952694100E+01
5.02394878976E+08	-6.85479558548E-01	-2.70472238972E+01
5.04195219044E+08	-6.84908118141E-01	-3.30023611654E+01
5.05995559112E+08	-6.81474233716E-01	-3.89552075682E+01
5.07795899180E+08	-6.78306777333E-01	-4.49051915039E+01
5.09596239248E+08	-6.77913068443E-01	-5.08742255363E+01
5.11396579316E+08	-6.78068581585E-01	-5.68413669015E+01
5.13196919384E+08	-6.76556895251E-01	-6.28081963153E+01
5.14997259452E+08	-6.75620080373E-01	-6.87638613241E+01
5.16797599520E+08	-6.78348863470E-01	-7.47345086505E+01
5.18597939588E+08	-6.78153301175E-01	-8.07092335744E+01
5.20398279656E+08	-6.77081759194E-01	-8.66660831643E+01
5.22198619724E+08	-6.78627281185E-01	-9.26273301530E+01
5.23998959792E+08	-6.80704533129E-01	-9.85803973004E+01
5.25799299860E+08	-6.84334173930E-01	-1.04537710888E+02
5.27599639928E+08	-6.84608004732E-01	-1.10499289197E+02
5.29399979996E+08	-6.90093705008E-01	-1.16447391784E+02
5.31200320064E+08	-6.94381120394E-01	-1.22401233017E+02
5.33000660132E+08	-6.96602236606E-01	-1.28330688067E+02
5.34801000200E+08	-7.00425998497E-01	-1.34270013524E+02
5.36601340268E+08	-7.03425481272E-01	-1.40203428204E+02
5.38401680336E+08	-7.09412272872E-01	-1.46106622706E+02
5.40202020404E+08	-7.15477884246E-01	-1.52029006813E+02
5.42002360472E+08	-7.19260170645E-01	-1.57951080962E+02
5.43802700540E+08	-7.23415424844E-01	-1.63837245923E+02
5.45603040608E+08	-7.27804743060E-01	-1.69738678716E+02
5.47403380676E+08	-7.33543509633E-01	-1.75632661455E+02
5.49203720744E+08	-7.41447878145E-01	1.78500906497E+02
5.51004060812E+08	-7.46109450761E-01	1.72629233968E+02
5.52804400880E+08	-7.47902369113E-01	1.66755640556E+02
5.54604740948E+08	-7.50238757702E-01	1.60902811522E+02
5.56405081016E+08	-7.57241079564E-01	1.55051799620E+02
5.58205421084E+08	-7.61310785663E-01	1.49201190290E+02
5.60005761152E+08	-7.68442109654E-01	1.43353795104E+02
5.61806101220E+08	-7.68386397589E-01	1.37512910004E+02
5.63606441288E+08	-7.73392361187E-01	1.31667879798E+02
5.65406781356E+08	-7.76093986211E-01	1.25842699770E+02
5.67207121424E+08	-7.77805215291E-01	1.20010511785E+02
5.69007461492E+08	-7.81213934818E-01	1.14185349355E+02
5.70807801560E+08	-7.83762603260E-01	1.08363465187E+02
5.72608141628E+08	-7.84625671839E-01	1.02547348672E+02
5.74408481696E+08	-7.88267636309E-01	9.67238343659E+01
5.76208821764E+08	-7.86756450429E-01	9.08853971430E+01
5.78009161832E+08	-7.86574549824E-01	8.50556832970E+01
5.79809501900E+08	-7.86145364335E-01	7.92354390804E+01
5.81609841968E+08	-7.84995274049E-01	7.34012936887E+01
5.83410182036E+08	-7.84866209898E-01	6.75610088308E+01
5.85210522104E+08	-7.84224975562E-01	6.17339839174E+01
5.87010862172E+08	-7.83227001440E-01	5.58943013570E+01
5.88811202240E+08	-7.79853209506E-01	5.00528699057E+01
5.90611542308E+08	-7.77676797946E-01	4.41924202053E+01
5.92411882376E+08	-7.76760376866E-01	3.83385761126E+01
5.94212222444E+08	-7.72731986134E-01	3.24845076355E+01
5.96012562513E+08	-7.71719860785E-01	2.66064892200E+01
5.97812902581E+08	-7.67984379191E-01	2.07317724119E+01
5.99613242649E+08	-7.64898020451E-01	1.48644021041E+01
6.01413582717E+08	-7.61100621831E-01	8.96293128854E+00
6.03213922785E+08	-7.57043106331E-01	3.07215312340E+00
6.05014262853E+08	-7.54194469438E-01	-2.84361819007E+00
6.06814602921E+08	-7.51439383745E-01	-8.74439000015E+00
6.08614942989E+08	-7.47475531335E-01	-1.46755199616E+01
6.10415283057E+08	-7.45095554199E-01	-2.05907704798E+01
6.12215623125E+08	-7.41990255842E-01	-2.65283708098E+01
6.14015963193E+08	-7.40432524795E-01	-3.24558094633E+01
6.15816303261E+08	-7.37064135652E-01	-3.84077655847E+01
6.17616643329E+08	-7.37534294156E-01	-4.43397628989E+01
6.19416983397E+08	-7.36066941107E-01	-5.03105956146E+01
6.21217323465E+08	-7.33132114231E-01	-5.62673505723E+01
6.23017663533E+08	-7.31832879940E-01	-6.22247893053E+01
6.24818003601E+08	-7.34582855169E-01	-6.81859506523E+01
6.26618343669E+08	-7.31203428447E-01	-7.41508863726E+01
6.28418683737E+08	-7.34010229005E-01	-8.01247663760E+01
6.30219023805E+08	-7.35898170035E-01	-8.60964677211E+01
6.32019363873E+08	-7.36862698576E-01	-9.20598923500E+01
6.33819703941E+08	-7.37860695652E-01	-9.80170726702E+01
6.35620044009E+08	-7.41475502411E-01	-1.03974636908E+02
6.37420384077E+08	-7.42861729936E-01	-1.09939077404E+02
6.39220724145E+08	-7.45593750369E-01	-1.15901015275E+02
6.41021064213E+08	-7.49242302341E-01	-1.21869094792E+02
6.42821404281E+08	-7.51810202896E-01	-1.27813889131E+02
