# Hz S DB R 50
! CMT, C1209, 21460007, 21.4.4/2
! Date: 4/14/2023 1:39:37 PM
! Data: Format (Calibration Info)
! Freq	S11:dB/Ang(--)
1.00000000000E+05	-2.01779300048E-02	1.79516012990E+02
1.90034006801E+06	-6.63945876926E-02	1.73356466660E+02
3.70068013603E+06	-9.78655858939E-02	1.67332516790E+02
5.50102020404E+06	-1.16616814159E-01	1.61374635999E+02
7.30136027205E+06	-1.35528048080E-01	1.55453207696E+02
9.10170034007E+06	-1.46491574564E-01	1.49543635477E+02
1.09020404081E+07	-1.67516461704E-01	1.43614340103E+02
1.27023804761E+07	-1.71232296029E-01	1.37721837645E+02
1.45027205441E+07	-1.82632720066E-01	1.31812004221E+02
1.63030606121E+07	-1.89315636203E-01	1.25919337708E+02
1.81034006801E+07	-1.98447594231E-01	1.20015838456E+02
1.99037407481E+07	-2.05366279609E-01	1.14122243175E+02
2.17040808162E+07	-2.10739046473E-01	1.08226951222E+02
2.35044208842E+07	-2.16642265207E-01	1.02320544007E+02
2.53047609522E+07	-2.19614633952E-01	9.64230392875E+01
2.71051010202E+07	-2.24090143620E-01	9.05188324370E+01
2.89054410882E+07	-2.23537786245E-01	8.46175041030E+01
3.07057811562E+07	-2.26409519239E-01	7.87031744358E+01
3.25061212242E+07	-2.27401916685E-01	7.27736996717E+01
3.43064612923E+07	-2.27004629833E-01	6.68500423971E+01
3.61068013603E+07	-2.26701976392E-01	6.09110332365E+01
3.79071414283E+07	-2.26836472893E-01	5.49829832079E+01
3.97074814963E+07	-2.25862935044E-01	4.90588455860E+01
4.15078215643E+07	-2.24698147863E-01	4.31003783991E+01
4.33081616323E+07	-2.23827082585E-01	3.71541184644E+01
4.51085017003E+07	-2.20316062868E-01	3.12069709785E+01
4.69088417684E+07	-2.16061845960E-01	2.52596758128E+01
4.87091818364E+07	-2.17703574484E-01	1.93061726722E+01
5.05095219044E+07	-2.15687185821E-01	1.33278570696E+01
5.23098619724E+07	-2.12226498743E-01	7.37152777290E+00
5.41102020404E+07	-2.09752005633E-01	1.40747199858E+00
5.59105421084E+07	-2.09371800589E-01	-4.57114573526E+00
5.77108821764E+07	-2.07168798260E-01	-1.05308889165E+01
5.95112222444E+07	-2.06210444582E-01	-1.65052183487E+01
6.13115623125E+07	-2.05853433197E-01	-2.24773504383E+01
6.31119023805E+07	-2.03859758567E-01	-2.84514912770E+01
6.49122424485E+07	-2.02974035967E-01	-3.44116916092E+01
6.67125825165E+07	-2.04065128152E-01	-4.03793426689E+01
6.85129225845E+07	-2.05361843441E-01	-4.63418576005E+01
7.03132626525E+07	-2.03323757619E-01	-5.23155578593E+01
7.21136027205E+07	-2.06171324670E-01	-5.82854568022E+01
7.39139427886E+07	-2.12172695151E-01	-6.42254525085E+01
7.57142828566E+07	-2.11524522910E-01	-7.01820240752E+01
7.75146229246E+07	-2.15632274964E-01	-7.61361731209E+01
7.93149629926E+07	-2.20138979277E-01	-8.20800108542E+01
8.11153030606E+07	-2.23061788783E-01	-8.80052757906E+01
8.29156431286E+07	-2.28896796352E-01	-9.39281419073E+01
8.47159831966E+07	-2.34680760303E-01	-9.98557272752E+01
8.65163232647E+07	-2.40010063857E-01	-1.05762930187E+02
8.83166633327E+07	-2.45234536671E-01	-1.11675974725E+02
9.01170034007E+07	-2.51672923933E-01	-1.17577957887E+02
9.19173434687E+07	-2.59379806236E-01	-1.23473450569E+02
9.37176835367E+07	-2.67436992848E-01	-1.29368632314E+02
9.55180236047E+07	-2.73544409363E-01	-1.35255929272E+02
9.73183636727E+07	-2.80076378023E-01	-1.41130266967E+02
9.91187037407E+07	-2.89131775876E-01	-1.47003061074E+02
1.00919043809E+08	-2.98422871240E-01	-1.52874925075E+02
1.02719383877E+08	-3.04642291444E-01	-1.58729359682E+02
1.04519723945E+08	-3.12183332081E-01	-1.64582901499E+02
1.06320064013E+08	-3.22614772908E-01	-1.70444292160E+02
1.08120404081E+08	-3.29666511689E-01	-1.76291941857E+02
1.09920744149E+08	-3.38134182625E-01	1.77866699625E+02
1.11721084217E+08	-3.45656436696E-01	1.72026511121E+02
1.13521424285E+08	-3.52831195959E-01	1.66159560097E+02
1.15321764353E+08	-3.61184574926E-01	1.60333505889E+02
1.17122104421E+08	-3.67890018813E-01	1.54494775764E+02
1.18922444489E+08	-3.75416517304E-01	1.48653406766E+02
1.20722784557E+08	-3.82284412888E-01	1.42799050871E+02
1.22523124625E+08	-3.85987500250E-01	1.36961559322E+02
1.24323464693E+08	-3.93907042234E-01	1.31119824050E+02
1.26123804761E+08	-3.96673468362E-01	1.25274085034E+02
1.27924144829E+08	-4.04389613684E-01	1.19409801990E+02
1.29724484897E+08	-4.07682183515E-01	1.13569274620E+02
1.31524824965E+08	-4.11666281655E-01	1.07695363385E+02
1.33325165033E+08	-4.13795911987E-01	1.01841765629E+02
1.35125505101E+08	-4.17084308998E-01	9.59786674931E+01
1.36925845169E+08	-4.20368036145E-01	9.00949202158E+01
1.38726185237E+08	-4.21437485207E-01	8.42162191703E+01
1.40526525305E+08	-4.23669068960E-01	7.83436356479E+01
1.42326865373E+08	-4.24370737748E-01	7.24490007991E+01
1.44127205441E+08	-4.25667057712E-01	6.65478392703E+01
1.45927545509E+08	-4.25525274002E-01	6.06350393250E+01
1.47727885577E+08	-4.24710173686E-01	5.47290866213E+01
1.49528225645E+08	-4.26127408671E-01	4.88176174081E+01
1.51328565713E+08	-4.23787333357E-01	4.28785737807E+01
1.53128905781E+08	-4.21654077753E-01	3.69478931389E+01
1.54929245849E+08	-4.21907156449E-01	3.10163189730E+01
1.56729585917E+08	-4.19034721897E-01	2.50886166223E+01
1.58529925985E+08	-4.14864401742E-01	1.91373773762E+01
1.60330266053E+08	-4.16067857040E-01	1.31786474083E+01
1.62130606121E+08	-4.11895370094E-01	7.22751186997E+00
1.63930946189E+08	-4.12138754040E-01	1.27231077071E+00
1.65731286257E+08	-4.09805871820E-01	-4.69796768332E+00
1.67531626325E+08	-4.10664605176E-01	-1.06627070765E+01
1.69331966393E+08	-4.06088449273E-01	-1.66222577243E+01
1.71132306461E+08	-4.05187812643E-01	-2.25791179202E+01
1.72932646529E+08	-4.03478415182E-01	-2.85570139375E+01
1.74732986597E+08	-4.02325603716E-01	-3.45223023133E+01
1.76533326665E+08	-4.02609149367E-01	-4.04895967320E+01
1.78333666733E+08	-4.01929969261E-01	-4.64566208299E+01
1.80134006801E+08	-4.02902920962E-01	-5.24149678376E+01
1.81934346869E+08	-4.02191812553E-01	-5.83826464686E+01
1.83734686937E+08	-4.03548401246E-01	-6.43298339886E+01
1.85535027005E+08	-4.02148140537E-01	-7.02866563281E+01
1.87335367073E+08	-4.04955257034E-01	-7.62400492175E+01
1.89135707141E+08	-4.07539513218E-01	-8.21778080282E+01
1.90936047209E+08	-4.11153313412E-01	-8.81216528914E+01
1.92736387277E+08	-4.12676167844E-01	-9.40501653531E+01
1.94536727345E+08	-4.15685999344E-01	-9.99669668905E+01
1.96337067413E+08	-4.19431305356E-01	-1.05891231214E+02
1.98137407481E+08	-4.25505063214E-01	-1.11811154477E+02
1.99937747550E+08	-4.28410548943E-01	-1.17699621917E+02
2.01738087618E+08	-4.33899059194E-01	-1.23614833930E+02
2.03538427686E+08	-4.38948905347E-01	-1.29517674480E+02
2.05338767754E+08	-4.43589936536E-01	-1.35388739868E+02
2.07139107822E+08	-4.50365515373E-01	-1.41282595992E+02
2.08939447890E+08	-4.55219175655E-01	-1.47137809684E+02
2.10739787958E+08	-4.63914642545E-01	-1.53000666334E+02
2.12540128026E+08	-4.67247049338E-01	-1.58866377113E+02
2.14340468094E+08	-4.74411051987E-01	-1.64704903945E+02
2.16140808162E+08	-4.80565303240E-01	-1.70569049966E+02
2.17941148230E+08	-4.88020586351E-01	-1.76415643384E+02
2.19741488298E+08	-4.92837892977E-01	1.77754734316E+02
2.21541828366E+08	-4.99020270843E-01	1.71908721314E+02
2.23342168434E+08	-5.03545953983E-01	1.66077692021E+02
2.25142508502E+08	-5.10771913827E-01	1.60246583615E+02
2.26942848570E+08	-5.16075368700E-01	1.54410684428E+02
2.28743188638E+08	-5.21233345973E-01	1.48585275028E+02
2.30543528706E+08	-5.26021430675E-01	1.42752297794E+02
2.32343868774E+08	-5.31329261256E-01	1.36918399267E+02
2.34144208842E+08	-5.35404473223E-01	1.31101020780E+02
2.35944548910E+08	-5.40844050554E-01	1.25260558216E+02
2.37744888978E+08	-5.42894470126E-01	1.19418636908E+02
2.39545229046E+08	-5.46517120721E-01	1.13569889693E+02
2.41345569114E+08	-5.49760568017E-01	1.07732156511E+02
2.43145909182E+08	-5.52147636692E-01	1.01873448437E+02
2.44946249250E+08	-5.53312090598E-01	9.60346197862E+01
2.46746589318E+08	-5.54979096159E-01	9.01796939710E+01
2.48546929386E+08	-5.55580604616E-01	8.43165648556E+01
2.50347269454E+08	-5.58013839029E-01	7.84458485747E+01
2.52147609522E+08	-5.57034447131E-01	7.25778525571E+01
2.53947949590E+08	-5.57095850766E-01	6.66873308261E+01
2.55748289658E+08	-5.56641696368E-01	6.08043553610E+01
2.57548629726E+08	-5.56521123231E-01	5.49142819188E+01
2.59348969794E+08	-5.54338352553E-01	4.90091000050E+01
2.61149309862E+08	-5.51765214197E-01	4.30885664461E+01
2.62949649930E+08	-5.53312186478E-01	3.71753997779E+01
2.64749989998E+08	-5.49602104627E-01	3.12599398197E+01
2.66550330066E+08	-5.48428729228E-01	2.53388676203E+01
2.68350670134E+08	-5.45340351981E-01	1.93871296991E+01
2.70151010202E+08	-5.41491708796E-01	1.34530959203E+01
2.71951350270E+08	-5.40334423716E-01	7.51245826269E+00
2.73751690338E+08	-5.39317076710E-01	1.56294040939E+00
2.75552030406E+08	-5.36756073413E-01	-4.40356325763E+00
2.77352370474E+08	-5.32155960940E-01	-1.03647095125E+01
2.79152710542E+08	-5.32091214764E-01	-1.63236630033E+01
2.80953050610E+08	-5.28401682146E-01	-2.22854728854E+01
2.82753390678E+08	-5.27700864548E-01	-2.82522348766E+01
2.84553730746E+08	-5.26412409835E-01	-3.42268146092E+01
2.86354070814E+08	-5.23929762913E-01	-4.01921491543E+01
2.88154410882E+08	-5.22300169989E-01	-4.61619054562E+01
2.89954750950E+08	-5.21728696167E-01	-5.21364472950E+01
2.91755091018E+08	-5.23585611922E-01	-5.81047744570E+01
2.93555431086E+08	-5.23482347206E-01	-6.40738979412E+01
2.95355771154E+08	-5.22276050620E-01	-7.00318868582E+01
2.97156111222E+08	-5.24806599023E-01	-7.60020460974E+01
2.98956451290E+08	-5.25564089216E-01	-8.19502813169E+01
3.00756791358E+08	-5.26958436876E-01	-8.78998000334E+01
3.02557131426E+08	-5.28215588591E-01	-9.38420311204E+01
3.04357471494E+08	-5.29754916114E-01	-9.97778169949E+01
3.06157811562E+08	-5.33896431510E-01	-1.05718756158E+02
3.07958151630E+08	-5.36402489397E-01	-1.11646566029E+02
3.09758491698E+08	-5.41024635142E-01	-1.17563041925E+02
3.11558831766E+08	-5.44742864687E-01	-1.23486547198E+02
3.13359171834E+08	-5.50085296503E-01	-1.29380427110E+02
3.15159511902E+08	-5.53878346645E-01	-1.35284655306E+02
3.16959851970E+08	-5.59497150552E-01	-1.41179509373E+02
3.18760192038E+08	-5.63922670416E-01	-1.47062287422E+02
3.20560532106E+08	-5.68792118978E-01	-1.52941273807E+02
3.22360872174E+08	-5.74560754799E-01	-1.58802655501E+02
3.24161212242E+08	-5.78549377726E-01	-1.64669928972E+02
3.25961552310E+08	-5.84021183746E-01	-1.70531162935E+02
3.27761892378E+08	-5.91092657442E-01	-1.76391244113E+02
3.29562232446E+08	-5.95634846980E-01	1.77774198687E+02
3.31362572515E+08	-6.01560181260E-01	1.71927276028E+02
3.33162912583E+08	-6.07405566424E-01	1.66086680511E+02
3.34963252651E+08	-6.12743791214E-01	1.60262999375E+02
3.36763592719E+08	-6.15555963274E-01	1.54423182874E+02
3.38563932787E+08	-6.20694511703E-01	1.48593958548E+02
3.40364272855E+08	-6.26928302899E-01	1.42758147232E+02
3.42164612923E+08	-6.29654079023E-01	1.36947036537E+02
3.43964952991E+08	-6.32807463391E-01	1.31124122644E+02
3.45765293059E+08	-6.38034585850E-01	1.25306441702E+02
3.47565633127E+08	-6.41228365131E-01	1.19479891635E+02
3.49365973195E+08	-6.42573413129E-01	1.13654050391E+02
3.51166313263E+08	-6.45619526465E-01	1.07822331499E+02
3.52966653331E+08	-6.47751043801E-01	1.01989285298E+02
3.54766993399E+08	-6.48795339649E-01	9.61626425485E+01
3.56567333467E+08	-6.49388382629E-01	9.03181505931E+01
3.58367673535E+08	-6.50152862805E-01	8.44795725017E+01
3.60168013603E+08	-6.51148261315E-01	7.86290139637E+01
3.61968353671E+08	-6.49363094450E-01	7.27694821307E+01
3.63768693739E+08	-6.49414601343E-01	6.69142755920E+01
3.65569033807E+08	-6.47365493433E-01	6.10375195383E+01
3.67369373875E+08	-6.47697882455E-01	5.51884211574E+01
3.69169713943E+08	-6.45430623847E-01	4.92953908361E+01
3.70970054011E+08	-6.46435738876E-01	4.34167761583E+01
3.72770394079E+08	-6.44022860223E-01	3.75197196433E+01
3.74570734147E+08	-6.39256936061E-01	3.16095663438E+01
3.76371074215E+08	-6.37393135091E-01	2.57065452128E+01
3.78171414283E+08	-6.35498314991E-01	1.97922146529E+01
3.79971754351E+08	-6.32686879997E-01	1.38774693326E+01
3.81772094419E+08	-6.29430476711E-01	7.95715856251E+00
3.83572434487E+08	-6.28209648661E-01	2.02339954586E+00
3.85372774555E+08	-6.24759536274E-01	-3.91629417132E+00
3.87173114623E+08	-6.22744957446E-01	-9.86990958222E+00
3.88973454691E+08	-6.19056451045E-01	-1.58095341518E+01
3.90773794759E+08	-6.15548599709E-01	-2.17666906858E+01
3.92574134827E+08	-6.15381868939E-01	-2.77264978911E+01
3.94374474895E+08	-6.14311092645E-01	-3.36764863285E+01
3.96174814963E+08	-6.10979779279E-01	-3.96506640492E+01
3.97975155031E+08	-6.11018895988E-01	-4.56263216685E+01
3.99775495099E+08	-6.09451263554E-01	-5.15729263044E+01
4.01575835167E+08	-6.06371288104E-01	-5.75491468208E+01
4.03376175235E+08	-6.07572792812E-01	-6.35184353767E+01
4.05176515303E+08	-6.08135291924E-01	-6.94778033057E+01
4.06976855371E+08	-6.06060084832E-01	-7.54442689714E+01
4.08777195439E+08	-6.07334206386E-01	-8.13960236403E+01
4.10577535507E+08	-6.10044164970E-01	-8.73545187070E+01
4.12377875575E+08	-6.12771070619E-01	-9.33074616315E+01
4.14178215643E+08	-6.13327542431E-01	-9.92773640126E+01
4.15978555711E+08	-6.17157144118E-01	-1.05211758636E+02
4.17778895779E+08	-6.19805012758E-01	-1.11143036928E+02
4.19579235847E+08	-6.23503757731E-01	-1.17083007107E+02
4.21379575915E+08	-6.26058040511E-01	-1.23010804281E+02
4.23179915983E+08	-6.29199381583E-01	-1.28930416284E+02
4.24980256051E+08	-6.34653085032E-01	-1.34847239796E+02
4.26780596119E+08	-6.39080851019E-01	-1.40751308540E+02
4.28580936187E+08	-6.42853903405E-01	-1.46653845412E+02
4.30381276255E+08	-6.48504521600E-01	-1.52556560767E+02
4.32181616323E+08	-6.54467715029E-01	-1.58432431392E+02
4.33981956391E+08	-6.58651924095E-01	-1.64313343491E+02
4.35782296459E+08	-6.64961944262E-01	-1.70178795453E+02
4.37582636527E+08	-6.70035647687E-01	-1.76050522573E+02
4.39382976595E+08	-6.76079258170E-01	1.78080814500E+02
4.41183316663E+08	-6.80437697290E-01	1.72218289266E+02
4.42983656731E+08	-6.84473900437E-01	1.66376270349E+02
4.44783996799E+08	-6.89672763306E-01	1.60535124444E+02
4.46584336867E+08	-6.93731067007E-01	1.54699295569E+02
4.48384676935E+08	-6.98439762400E-01	1.48864663580E+02
4.50185017003E+08	-7.01830903183E-01	1.43029660961E+02
4.51985357071E+08	-7.07230089015E-01	1.37201959499E+02
4.53785697139E+08	-7.09251666136E-01	1.31363640113E+02
4.55586037207E+08	-7.11275715019E-01	1.25545334379E+02
4.57386377275E+08	-7.15378023583E-01	1.19725750896E+02
4.59186717343E+08	-7.17735680675E-01	1.13904105178E+02
4.60987057411E+08	-7.18779170202E-01	1.08069948795E+02
4.62787397479E+08	-7.20256984835E-01	1.02250133882E+02
4.64587737548E+08	-7.22137983082E-01	9.64232659570E+01
4.66388077616E+08	-7.23204365668E-01	9.05893593093E+01
4.68188417684E+08	-7.24597020842E-01	8.47606621244E+01
4.69988757752E+08	-7.22890880964E-01	7.89244417679E+01
4.71789097820E+08	-7.23248075514E-01	7.30929532612E+01
4.73589437888E+08	-7.21994473783E-01	6.72540429207E+01
4.75389777956E+08	-7.21874818408E-01	6.14052775732E+01
4.77190118024E+08	-7.19037329934E-01	5.55527388822E+01
4.78990458092E+08	-7.17588099581E-01	4.96920974934E+01
4.80790798160E+08	-7.17416836171E-01	4.38151435890E+01
4.82591138228E+08	-7.13971513709E-01	3.79468122605E+01
4.84391478296E+08	-7.13129624538E-01	3.20684329310E+01
4.86191818364E+08	-7.08695851511E-01	2.61739900429E+01
4.87992158432E+08	-7.05835543597E-01	2.02827509922E+01
4.89792498500E+08	-7.02716410813E-01	1.43916144485E+01
4.91592838568E+08	-7.01712189403E-01	8.48403449729E+00
4.93393178636E+08	-6.98691558485E-01	2.56168523809E+00
4.95193518704E+08	-6.93150564399E-01	-3.34970975502E+00
4.96993858772E+08	-6.92977818447E-01	-9.27969365123E+00
4.98794198840E+08	-6.88670142320E-01	-1.52093257418E+01
5.00594538908E+08	-6.87381436845E-01	-2.11413126279E+01
5.02394878976E+08	-6.85736272715E-01	-2.70869097288E+01
5.04195219044E+08	-6.82798403747E-01	-3.30306159803E+01
5.05995559112E+08	-6.79229157213E-01	-3.89949107943E+01
5.07795899180E+08	-6.78270283896E-01	-4.49343703669E+01
5.09596239248E+08	-6.77872245703E-01	-5.09094497256E+01
5.11396579316E+08	-6.77023986597E-01	-5.68753079761E+01
5.13196919384E+08	-6.76101957640E-01	-6.28280646836E+01
5.14997259452E+08	-6.76789338492E-01	-6.87966834062E+01
5.16797599520E+08	-6.75844510881E-01	-7.47556932528E+01
5.18597939588E+08	-6.77304110839E-01	-8.07306582990E+01
5.20398279656E+08	-6.79457820383E-01	-8.66885947611E+01
5.22198619724E+08	-6.80413170668E-01	-9.26337444558E+01
5.23998959792E+08	-6.82408964087E-01	-9.86199741583E+01
5.25799299860E+08	-6.83283215411E-01	-1.04583240723E+02
5.27599639928E+08	-6.89057967235E-01	-1.10517946223E+02
5.29399979996E+08	-6.91191749217E-01	-1.16474442530E+02
5.31200320064E+08	-6.93077123646E-01	-1.22422702206E+02
5.33000660132E+08	-6.98901730336E-01	-1.28356224466E+02
5.34801000200E+08	-7.03342224221E-01	-1.34277107035E+02
5.36601340268E+08	-7.05957204422E-01	-1.40211223072E+02
5.38401680336E+08	-7.08465792572E-01	-1.46143454075E+02
5.40202020404E+08	-7.15705796863E-01	-1.52061679749E+02
5.42002360472E+08	-7.20617740083E-01	-1.57957390312E+02
5.43802700540E+08	-7.24520790345E-01	-1.63861837989E+02
5.45603040608E+08	-7.29759505590E-01	-1.69765231383E+02
5.47403380676E+08	-7.35619548800E-01	-1.75641699239E+02
5.49203720744E+08	-7.38726269001E-01	1.78479679784E+02
5.51004060812E+08	-7.43762467640E-01	1.72594975005E+02
5.52804400880E+08	-7.50800772057E-01	1.66741671976E+02
5.54604740948E+08	-7.54634027796E-01	1.60869834366E+02
5.56405081016E+08	-7.60134595740E-01	1.55013618134E+02
5.58205421084E+08	-7.61900791567E-01	1.49159212604E+02
5.60005761152E+08	-7.65364135975E-01	1.43326849121E+02
5.61806101220E+08	-7.70860634510E-01	1.37461071323E+02
5.63606441288E+08	-7.71858993822E-01	1.31654297762E+02
5.65406781356E+08	-7.76393397876E-01	1.25820834998E+02
5.67207121424E+08	-7.80310101857E-01	1.19977431233E+02
5.69007461492E+08	-7.81858962166E-01	1.14169494041E+02
5.70807801560E+08	-7.82610792890E-01	1.08330700360E+02
5.72608141628E+08	-7.85018797579E-01	1.02503119516E+02
5.74408481696E+08	-7.87167508640E-01	9.66832346978E+01
5.76208821764E+08	-7.86049200080E-01	9.08634787633E+01
5.78009161832E+08	-7.86179106210E-01	8.50275604066E+01
5.79809501900E+08	-7.87628085258E-01	7.91965585663E+01
5.81609841968E+08	-7.86172239229E-01	7.33764156163E+01
5.83410182036E+08	-7.86186353790E-01	6.75537884183E+01
5.85210522104E+08	-7.84798629060E-01	6.16920625343E+01
5.87010862172E+08	-7.80973376694E-01	5.58685839223E+01
5.88811202240E+08	-7.80503684418E-01	5.00268304276E+01
5.90611542308E+08	-7.77618435924E-01	4.41650263316E+01
5.92411882376E+08	-7.75062864083E-01	3.83054739478E+01
5.94212222444E+08	-7.71774380898E-01	3.24546630499E+01
5.96012562513E+08	-7.69665224861E-01	2.65798854148E+01
5.97812902581E+08	-7.65541500090E-01	2.07020187500E+01
5.99613242649E+08	-7.61912258810E-01	1.48300461084E+01
6.01413582717E+08	-7.58611389681E-01	8.94489795564E+00
6.03213922785E+08	-7.55561417863E-01	3.04021858977E+00
6.05014262853E+08	-7.52581792039E-01	-2.86440345509E+00
6.06814602921E+08	-7.50555768356E-01	-8.76969336655E+00
6.08614942989E+08	-7.45660827863E-01	-1.46918352256E+01
6.10415283057E+08	-7.43153499789E-01	-2.05980187667E+01
6.12215623125E+08	-7.42451187853E-01	-2.65341950576E+01
6.14015963193E+08	-7.39025298761E-01	-3.24783222996E+01
6.15816303261E+08	-7.36949988863E-01	-3.84104295349E+01
6.17616643329E+08	-7.35692918883E-01	-4.43656743801E+01
6.19416983397E+08	-7.33718199458E-01	-5.03120974378E+01
6.21217323465E+08	-7.32578749604E-01	-5.62668533919E+01
6.23017663533E+08	-7.31804053703E-01	-6.22347781802E+01
6.24818003601E+08	-7.32017130153E-01	-6.81845821353E+01
6.26618343669E+08	-7.33712134763E-01	-7.41628809339E+01
6.28418683737E+08	-7.33490360105E-01	-8.01105025099E+01
6.30219023805E+08	-7.33949622327E-01	-8.60815400616E+01
6.32019363873E+08	-7.38145926673E-01	-9.20520758890E+01
6.33819703941E+08	-7.39418314199E-01	-9.80136108867E+01
6.35620044009E+08	-7.41628786164E-01	-1.03973563690E+02
6.37420384077E+08	-7.43748973518E-01	-1.09934545919E+02
6.39220724145E+08	-7.47077569074E-01	-1.15890200738E+02
6.41021064213E+08	-7.49652930958E-01	-1.21855351412E+02
6.42821404281E+08	-7.54329554733E-01	-1.27802711073E+02
