# Hz S DB R 50
! CMT, C1209, 21460007, 21.4.4/2
! Date: 4/14/2023 1:45:07 PM
! Data: Format (Calibration Info)
! Freq	S11:dB/Ang(--)
2.40000000000E+09	-1.34386079986E+01	-6.11714808232E-01
2.40000000000E+09	-1.34396908254E+01	-5.99656760596E-01
2.40000000000E+09	-1.34403384077E+01	-6.00459550806E-01
2.40000000000E+09	-1.34397050170E+01	-5.98869748067E-01
2.40000000000E+09	-1.34404747681E+01	-5.93918311902E-01
2.40000000000E+09	-1.34413906515E+01	-6.12588018259E-01
2.40000000000E+09	-1.34417195806E+01	-5.96776249883E-01
2.40000000000E+09	-1.34428456675E+01	-6.12374430071E-01
2.40000000000E+09	-1.34406815994E+01	-6.08178408752E-01
2.40000000000E+09	-1.34418273740E+01	-5.90206109604E-01
2.40000000000E+09	-1.34412970341E+01	-6.27406446480E-01
2.40000000000E+09	-1.34436028713E+01	-5.82959285667E-01
2.40000000000E+09	-1.34422620065E+01	-5.90790884141E-01
2.40000000000E+09	-1.34437314588E+01	-6.20924212375E-01
2.40000000000E+09	-1.34454155809E+01	-5.90653852983E-01
2.40000000000E+09	-1.34434336981E+01	-6.01168550878E-01
2.40000000000E+09	-1.34432027308E+01	-5.90871199852E-01
2.40000000000E+09	-1.34431210075E+01	-6.22539362045E-01
2.40000000000E+09	-1.34464997385E+01	-6.14940626834E-01
2.40000000000E+09	-1.34443361264E+01	-5.94623891491E-01
2.40000000000E+09	-1.34431148150E+01	-5.91887548855E-01
2.40000000000E+09	-1.34432712024E+01	-5.94328323211E-01
2.40000000000E+09	-1.34444141474E+01	-6.07169983025E-01
2.40000000000E+09	-1.34436017871E+01	-5.88927069957E-01
2.40000000000E+09	-1.34416984800E+01	-5.85165119935E-01
2.40000000000E+09	-1.34460587458E+01	-5.94506365069E-01
2.40000000000E+09	-1.34477320408E+01	-5.82041942253E-01
2.40000000000E+09	-1.34414254696E+01	-5.96815903277E-01
2.40000000000E+09	-1.34451962445E+01	-5.84746185682E-01
2.40000000000E+09	-1.34443697176E+01	-5.87902490284E-01
2.40000000000E+09	-1.34427123255E+01	-5.84485312368E-01
2.40000000000E+09	-1.34441389288E+01	-5.94461760577E-01
2.40000000000E+09	-1.34461305820E+01	-6.10174911354E-01
2.40000000000E+09	-1.34452881740E+01	-5.97952108686E-01
2.40000000000E+09	-1.34424137031E+01	-5.90255617591E-01
2.40000000000E+09	-1.34461963035E+01	-5.77709681884E-01
2.40000000000E+09	-1.34424125096E+01	-5.93654935884E-01
2.40000000000E+09	-1.34407890127E+01	-5.98884724756E-01
2.40000000000E+09	-1.34441631626E+01	-5.82528246303E-01
2.40000000000E+09	-1.34427745334E+01	-5.87392705457E-01
2.40000000000E+09	-1.34458878136E+01	-6.14564329575E-01
2.40000000000E+09	-1.34445218235E+01	-5.89010843646E-01
2.40000000000E+09	-1.34436903212E+01	-5.77042164284E-01
2.40000000000E+09	-1.34443823371E+01	-5.89492514561E-01
2.40000000000E+09	-1.34432660097E+01	-6.06875838297E-01
2.40000000000E+09	-1.34438346643E+01	-6.11944058618E-01
2.40000000000E+09	-1.34461331482E+01	-6.19694018001E-01
2.40000000000E+09	-1.34449981985E+01	-6.03305156560E-01
2.40000000000E+09	-1.34405169326E+01	-5.99519145666E-01
2.40000000000E+09	-1.34466917339E+01	-6.07692773427E-01
2.40000000000E+09	-1.34467792020E+01	-6.15523794443E-01
2.40000000000E+09	-1.34435403695E+01	-5.73115226637E-01
2.40000000000E+09	-1.34442021852E+01	-5.93949534722E-01
2.40000000000E+09	-1.34433179779E+01	-6.35469524737E-01
2.40000000000E+09	-1.34431391109E+01	-6.07437041279E-01
2.40000000000E+09	-1.34443345715E+01	-6.02294147247E-01
2.40000000000E+09	-1.34439637115E+01	-6.04561399043E-01
2.40000000000E+09	-1.34459846627E+01	-5.90197720994E-01
2.40000000000E+09	-1.34435961290E+01	-6.02028383093E-01
2.40000000000E+09	-1.34467253555E+01	-6.03658144713E-01
2.40000000000E+09	-1.34458361302E+01	-6.12518316491E-01
2.40000000000E+09	-1.34463071408E+01	-6.03465289745E-01
2.40000000000E+09	-1.34454409105E+01	-5.91207208255E-01
2.40000000000E+09	-1.34465266428E+01	-6.10445889706E-01
2.40000000000E+09	-1.34462571387E+01	-5.97555089382E-01
2.40000000000E+09	-1.34448564168E+01	-6.04759866103E-01
2.40000000000E+09	-1.34463979456E+01	-6.02226673617E-01
2.40000000000E+09	-1.34458010564E+01	-5.80036264884E-01
2.40000000000E+09	-1.34468315337E+01	-5.98729059036E-01
2.40000000000E+09	-1.34458919907E+01	-5.85633399039E-01
2.40000000000E+09	-1.34473536682E+01	-5.96648179252E-01
2.40000000000E+09	-1.34482963041E+01	-5.83009144446E-01
2.40000000000E+09	-1.34485311967E+01	-5.99665227295E-01
2.40000000000E+09	-1.34465858862E+01	-5.91706307271E-01
2.40000000000E+09	-1.34459898739E+01	-5.94430842431E-01
2.40000000000E+09	-1.34510969981E+01	-6.09795463623E-01
2.40000000000E+09	-1.34502346553E+01	-6.01956252651E-01
2.40000000000E+09	-1.34455246705E+01	-5.96462598608E-01
2.40000000000E+09	-1.34498627037E+01	-5.80594581780E-01
2.40000000000E+09	-1.34496261496E+01	-6.08690314689E-01
2.40000000000E+09	-1.34484620657E+01	-6.03007913805E-01
2.40000000000E+09	-1.34482038991E+01	-5.77796135289E-01
2.40000000000E+09	-1.34480127821E+01	-5.78711872808E-01
2.40000000000E+09	-1.34458327517E+01	-5.88872787214E-01
2.40000000000E+09	-1.34484045583E+01	-5.99900583103E-01
2.40000000000E+09	-1.34490886531E+01	-5.67020087000E-01
2.40000000000E+09	-1.34468449104E+01	-5.79213378633E-01
2.40000000000E+09	-1.34505323651E+01	-5.96671186180E-01
2.40000000000E+09	-1.34485592739E+01	-5.83060938977E-01
2.40000000000E+09	-1.34451421430E+01	-5.91347812700E-01
2.40000000000E+09	-1.34494396990E+01	-5.82445413843E-01
2.40000000000E+09	-1.34463983786E+01	-5.72137964363E-01
2.40000000000E+09	-1.34491310789E+01	-5.76905194312E-01
2.40000000000E+09	-1.34520196583E+01	-5.74431068868E-01
2.40000000000E+09	-1.34514413555E+01	-5.71009158835E-01
2.40000000000E+09	-1.34476495506E+01	-5.90598525671E-01
2.40000000000E+09	-1.34470632952E+01	-5.72597731261E-01
2.40000000000E+09	-1.34472695889E+01	-5.76905306552E-01
2.40000000000E+09	-1.34475896611E+01	-5.87638672493E-01
2.40000000000E+09	-1.34520284875E+01	-5.97294751765E-01
2.40000000000E+09	-1.34542838028E+01	-5.95726361490E-01
2.40000000000E+09	-1.34510804253E+01	-5.78258233458E-01
2.40000000000E+09	-1.34482039862E+01	-5.93077627010E-01
2.40000000000E+09	-1.34502903913E+01	-5.76084958399E-01
2.40000000000E+09	-1.34511204401E+01	-5.79744184100E-01
2.40000000000E+09	-1.34490248174E+01	-5.66487730341E-01
2.40000000000E+09	-1.34472785135E+01	-5.74043619970E-01
2.40000000000E+09	-1.34525296342E+01	-6.03356591520E-01
2.40000000000E+09	-1.34519821881E+01	-5.77114056211E-01
2.40000000000E+09	-1.34498348050E+01	-5.87588099682E-01
2.40000000000E+09	-1.34514124732E+01	-5.78353370527E-01
2.40000000000E+09	-1.34486907429E+01	-6.00416715905E-01
2.40000000000E+09	-1.34479871718E+01	-6.01042097643E-01
2.40000000000E+09	-1.34514862746E+01	-5.90452848535E-01
2.40000000000E+09	-1.34506786346E+01	-5.94581390487E-01
2.40000000000E+09	-1.34511490232E+01	-5.93659520437E-01
2.40000000000E+09	-1.34523133040E+01	-5.92722812563E-01
2.40000000000E+09	-1.34485530029E+01	-5.97998054485E-01
2.40000000000E+09	-1.34496566683E+01	-5.93173797797E-01
2.40000000000E+09	-1.34506197924E+01	-5.98801822714E-01
2.40000000000E+09	-1.34484894338E+01	-5.91611945627E-01
2.40000000000E+09	-1.34500106346E+01	-5.88588771833E-01
2.40000000000E+09	-1.34522535220E+01	-5.70732239434E-01
2.40000000000E+09	-1.34519974392E+01	-6.09439287803E-01
2.40000000000E+09	-1.34490418663E+01	-6.02409674900E-01
2.40000000000E+09	-1.34486184513E+01	-5.93380904990E-01
2.40000000000E+09	-1.34484161377E+01	-5.81639167839E-01
2.40000000000E+09	-1.34511045764E+01	-5.97605073862E-01
2.40000000000E+09	-1.34517911379E+01	-5.99709647968E-01
2.40000000000E+09	-1.34498525222E+01	-5.86397397535E-01
2.40000000000E+09	-1.34498283596E+01	-5.83819058307E-01
2.40000000000E+09	-1.34497358433E+01	-5.80149968746E-01
2.40000000000E+09	-1.34502389151E+01	-6.03660032366E-01
2.40000000000E+09	-1.34516216139E+01	-5.96287579885E-01
2.40000000000E+09	-1.34533965802E+01	-5.94241827607E-01
2.40000000000E+09	-1.34506758866E+01	-6.00014805780E-01
2.40000000000E+09	-1.34536245224E+01	-6.17451558236E-01
2.40000000000E+09	-1.34533680490E+01	-5.95161518215E-01
2.40000000000E+09	-1.34553222270E+01	-6.01467399354E-01
2.40000000000E+09	-1.34521715442E+01	-5.95557335708E-01
2.40000000000E+09	-1.34543292927E+01	-6.02674371318E-01
2.40000000000E+09	-1.34532569740E+01	-5.92799531502E-01
2.40000000000E+09	-1.34534713318E+01	-5.99792799139E-01
2.40000000000E+09	-1.34522048975E+01	-5.99676854731E-01
2.40000000000E+09	-1.34498304526E+01	-6.06480129310E-01
2.40000000000E+09	-1.34526879968E+01	-6.03367743642E-01
2.40000000000E+09	-1.34537103971E+01	-5.95544744425E-01
2.40000000000E+09	-1.34512205352E+01	-6.06045160622E-01
2.40000000000E+09	-1.34539184538E+01	-5.76730030589E-01
2.40000000000E+09	-1.34530338625E+01	-5.92799277149E-01
2.40000000000E+09	-1.34550832928E+01	-6.06093121419E-01
2.40000000000E+09	-1.34532223597E+01	-5.84081240255E-01
2.40000000000E+09	-1.34560800408E+01	-5.89206672861E-01
2.40000000000E+09	-1.34538236548E+01	-6.13607839655E-01
2.40000000000E+09	-1.34527663972E+01	-5.99745698611E-01
2.40000000000E+09	-1.34530544444E+01	-5.75941424658E-01
2.40000000000E+09	-1.34534356013E+01	-5.78999174171E-01
2.40000000000E+09	-1.34573486875E+01	-5.99301331973E-01
2.40000000000E+09	-1.34544918978E+01	-5.94043980296E-01
2.40000000000E+09	-1.34564431081E+01	-5.83149923526E-01
2.40000000000E+09	-1.34582602918E+01	-5.88666872261E-01
2.40000000000E+09	-1.34550762832E+01	-5.68407735261E-01
2.40000000000E+09	-1.34560477797E+01	-5.79861931569E-01
2.40000000000E+09	-1.34553856261E+01	-5.74890720975E-01
2.40000000000E+09	-1.34529142718E+01	-5.90358453518E-01
2.40000000000E+09	-1.34530543814E+01	-5.93508944548E-01
2.40000000000E+09	-1.34558501628E+01	-5.73220789059E-01
2.40000000000E+09	-1.34556919488E+01	-5.72022783514E-01
2.40000000000E+09	-1.34571325285E+01	-5.82444194320E-01
2.40000000000E+09	-1.34546597104E+01	-5.90940957343E-01
2.40000000000E+09	-1.34540885152E+01	-5.83708676089E-01
2.40000000000E+09	-1.34572076779E+01	-5.81654232632E-01
2.40000000000E+09	-1.34558936927E+01	-5.87055782223E-01
2.40000000000E+09	-1.34540679512E+01	-5.71211648204E-01
2.40000000000E+09	-1.34572934273E+01	-6.10794100745E-01
2.40000000000E+09	-1.34570727955E+01	-6.13593282832E-01
2.40000000000E+09	-1.34569264925E+01	-6.00122436970E-01
2.40000000000E+09	-1.34568632132E+01	-6.00850694286E-01
2.40000000000E+09	-1.34600160350E+01	-6.09518852430E-01
2.40000000000E+09	-1.34596214164E+01	-5.91071715251E-01
2.40000000000E+09	-1.34586866180E+01	-5.95148135270E-01
2.40000000000E+09	-1.34568326224E+01	-6.05815665371E-01
2.40000000000E+09	-1.34541968278E+01	-6.09900267697E-01
2.40000000000E+09	-1.34574252411E+01	-6.08590722924E-01
2.40000000000E+09	-1.34557763434E+01	-6.23763511116E-01
2.40000000000E+09	-1.34543256191E+01	-6.00361132562E-01
2.40000000000E+09	-1.34591957137E+01	-5.95803942217E-01
2.40000000000E+09	-1.34557775631E+01	-5.85875708331E-01
2.40000000000E+09	-1.34575546097E+01	-6.05044896180E-01
2.40000000000E+09	-1.34548659090E+01	-6.10432208490E-01
2.40000000000E+09	-1.34579671783E+01	-5.92741729686E-01
2.40000000000E+09	-1.34566361252E+01	-5.98044129283E-01
2.40000000000E+09	-1.34604764338E+01	-5.96805469247E-01
2.40000000000E+09	-1.34597835789E+01	-6.00564665460E-01
2.40000000000E+09	-1.34587355320E+01	-6.18041223636E-01
2.40000000000E+09	-1.34575583161E+01	-6.04446866912E-01
2.40000000000E+09	-1.34580041189E+01	-5.88484251815E-01
2.40000000000E+09	-1.34571629472E+01	-5.92785634121E-01
2.40000000000E+09	-1.34587365519E+01	-6.00148469902E-01
2.40000000000E+09	-1.34596636985E+01	-6.13097412284E-01
2.40000000000E+09	-1.34569235719E+01	-6.02445658238E-01
2.40000000000E+09	-1.34606954356E+01	-6.00311143299E-01
2.40000000000E+09	-1.34635282065E+01	-5.99471439817E-01
2.40000000000E+09	-1.34589324221E+01	-5.94232640351E-01
2.40000000000E+09	-1.34589942361E+01	-5.79153134847E-01
2.40000000000E+09	-1.34592209332E+01	-5.98608472820E-01
2.40000000000E+09	-1.34602034599E+01	-5.95373490989E-01
2.40000000000E+09	-1.34584077017E+01	-5.95344149085E-01
2.40000000000E+09	-1.34621326865E+01	-5.73967582308E-01
2.40000000000E+09	-1.34595697836E+01	-6.11499993267E-01
2.40000000000E+09	-1.34589558137E+01	-5.83278349709E-01
2.40000000000E+09	-1.34634119798E+01	-6.20300007084E-01
2.40000000000E+09	-1.34643320830E+01	-5.95771518938E-01
2.40000000000E+09	-1.34610618768E+01	-6.09546133408E-01
2.40000000000E+09	-1.34594991986E+01	-5.96913120675E-01
2.40000000000E+09	-1.34636493792E+01	-5.76587440722E-01
2.40000000000E+09	-1.34598415290E+01	-5.84436811121E-01
2.40000000000E+09	-1.34647678494E+01	-5.96819903606E-01
2.40000000000E+09	-1.34608715755E+01	-6.06003442722E-01
2.40000000000E+09	-1.34596744933E+01	-5.88748006060E-01
2.40000000000E+09	-1.34633117235E+01	-5.82226560641E-01
2.40000000000E+09	-1.34635343927E+01	-5.74582034952E-01
2.40000000000E+09	-1.34635612182E+01	-5.70731650089E-01
2.40000000000E+09	-1.34606674432E+01	-6.07864082569E-01
2.40000000000E+09	-1.34617398664E+01	-5.99462453347E-01
2.40000000000E+09	-1.34590195805E+01	-5.71447314991E-01
2.40000000000E+09	-1.34627249030E+01	-5.92526965550E-01
2.40000000000E+09	-1.34607572900E+01	-5.72140570834E-01
2.40000000000E+09	-1.34625365377E+01	-5.80862888839E-01
2.40000000000E+09	-1.34635707303E+01	-5.88715969918E-01
2.40000000000E+09	-1.34624152109E+01	-5.88006730645E-01
2.40000000000E+09	-1.34658185265E+01	-5.81448071653E-01
2.40000000000E+09	-1.34622937589E+01	-5.81662753350E-01
2.40000000000E+09	-1.34648733591E+01	-5.61719386408E-01
2.40000000000E+09	-1.34640582645E+01	-5.62056062132E-01
2.40000000000E+09	-1.34616216713E+01	-5.80346187839E-01
2.40000000000E+09	-1.34627194273E+01	-5.90706814481E-01
2.40000000000E+09	-1.34612769401E+01	-5.72169989132E-01
2.40000000000E+09	-1.34643517089E+01	-5.94199794664E-01
2.40000000000E+09	-1.34639004475E+01	-5.91827336370E-01
2.40000000000E+09	-1.34635257710E+01	-5.86563774152E-01
2.40000000000E+09	-1.34673709331E+01	-5.95675478286E-01
2.40000000000E+09	-1.34643820752E+01	-5.94626939061E-01
2.40000000000E+09	-1.34625809852E+01	-5.84505377391E-01
2.40000000000E+09	-1.34641153052E+01	-6.03995029603E-01
2.40000000000E+09	-1.34641876542E+01	-6.01973052696E-01
2.40000000000E+09	-1.34636657948E+01	-5.94198856811E-01
2.40000000000E+09	-1.34655609440E+01	-5.81133299395E-01
2.40000000000E+09	-1.34641509726E+01	-6.03089009298E-01
2.40000000000E+09	-1.34642823752E+01	-6.09399032065E-01
2.40000000000E+09	-1.34659511513E+01	-5.96480916233E-01
2.40000000000E+09	-1.34653055969E+01	-6.09228117803E-01
2.40000000000E+09	-1.34640691769E+01	-6.00085433745E-01
2.40000000000E+09	-1.34667772742E+01	-6.00171709789E-01
2.40000000000E+09	-1.34656445750E+01	-5.88333145199E-01
2.40000000000E+09	-1.34666800736E+01	-5.93311621286E-01
2.40000000000E+09	-1.34665428117E+01	-6.05315321325E-01
2.40000000000E+09	-1.34650954244E+01	-5.85523091861E-01
2.40000000000E+09	-1.34670741723E+01	-5.93692340766E-01
2.40000000000E+09	-1.34658667922E+01	-5.92219198990E-01
2.40000000000E+09	-1.34657348338E+01	-5.96149409119E-01
2.40000000000E+09	-1.34657757052E+01	-5.90364811633E-01
2.40000000000E+09	-1.34637806908E+01	-5.96078188203E-01
2.40000000000E+09	-1.34670233799E+01	-5.85040573087E-01
2.40000000000E+09	-1.34651543136E+01	-6.01893095579E-01
2.40000000000E+09	-1.34664334244E+01	-5.79375476409E-01
2.40000000000E+09	-1.34665717213E+01	-5.95808381685E-01
2.40000000000E+09	-1.34668745634E+01	-6.13732340681E-01
2.40000000000E+09	-1.34668900864E+01	-6.11464242952E-01
2.40000000000E+09	-1.34679010811E+01	-5.90144421244E-01
2.40000000000E+09	-1.34680810427E+01	-5.85266343516E-01
2.40000000000E+09	-1.34685594381E+01	-5.84101725860E-01
2.40000000000E+09	-1.34687441960E+01	-5.90065540279E-01
2.40000000000E+09	-1.34653481361E+01	-5.90899940076E-01
2.40000000000E+09	-1.34681039621E+01	-5.87004113671E-01
2.40000000000E+09	-1.34698371668E+01	-5.98764007271E-01
2.40000000000E+09	-1.34693122327E+01	-5.85271233981E-01
2.40000000000E+09	-1.34705898806E+01	-5.99842481165E-01
2.40000000000E+09	-1.34694168427E+01	-5.88737039407E-01
2.40000000000E+09	-1.34730054649E+01	-5.84114120583E-01
2.40000000000E+09	-1.34696425041E+01	-5.99117307491E-01
2.40000000000E+09	-1.34720241070E+01	-5.81494627833E-01
2.40000000000E+09	-1.34708693820E+01	-5.79664020088E-01
2.40000000000E+09	-1.34681675797E+01	-5.85287063980E-01
2.40000000000E+09	-1.34712427703E+01	-5.90992159187E-01
2.40000000000E+09	-1.34696029571E+01	-6.04047976535E-01
2.40000000000E+09	-1.34721142099E+01	-5.92920268713E-01
2.40000000000E+09	-1.34724438502E+01	-5.89998123085E-01
2.40000000000E+09	-1.34756471667E+01	-5.88574923616E-01
2.40000000000E+09	-1.34712899283E+01	-5.76034035518E-01
2.40000000000E+09	-1.34701355781E+01	-5.93398122402E-01
2.40000000000E+09	-1.34717485865E+01	-5.85295198683E-01
2.40000000000E+09	-1.34727652697E+01	-5.55983165657E-01
2.40000000000E+09	-1.34724768573E+01	-5.72693470145E-01
2.40000000000E+09	-1.34724831048E+01	-5.96061696819E-01
2.40000000000E+09	-1.34750514510E+01	-5.95428158399E-01
2.40000000000E+09	-1.34722497953E+01	-5.75078605426E-01
2.40000000000E+09	-1.34716185126E+01	-5.83736866375E-01
2.40000000000E+09	-1.34746078048E+01	-5.70809720131E-01
2.40000000000E+09	-1.34697732224E+01	-5.77434324725E-01
2.40000000000E+09	-1.34727936492E+01	-5.78619874652E-01
2.40000000000E+09	-1.34722714682E+01	-5.75484459733E-01
2.40000000000E+09	-1.34736412348E+01	-5.72427893789E-01
2.40000000000E+09	-1.34748366582E+01	-5.78309851774E-01
2.40000000000E+09	-1.34741582231E+01	-5.66944388569E-01
2.40000000000E+09	-1.34734303843E+01	-5.80667308870E-01
2.40000000000E+09	-1.34713045520E+01	-5.94343147203E-01
2.40000000000E+09	-1.34742377815E+01	-5.78645635972E-01
2.40000000000E+09	-1.34744170506E+01	-5.74380153063E-01
2.40000000000E+09	-1.34727139596E+01	-5.81000234205E-01
2.40000000000E+09	-1.34744427613E+01	-5.64587398575E-01
2.40000000000E+09	-1.34731527083E+01	-6.10439317188E-01
2.40000000000E+09	-1.34747757759E+01	-6.18966290931E-01
2.40000000000E+09	-1.34760270450E+01	-5.73876875496E-01
2.40000000000E+09	-1.34734967254E+01	-5.72759778207E-01
2.40000000000E+09	-1.34723244269E+01	-6.05146647178E-01
2.40000000000E+09	-1.34744054032E+01	-5.92138221116E-01
2.40000000000E+09	-1.34747453121E+01	-5.98283570870E-01
2.40000000000E+09	-1.34736929821E+01	-6.01998474862E-01
2.40000000000E+09	-1.34778026003E+01	-5.90457881473E-01
2.40000000000E+09	-1.34741140673E+01	-5.99698775325E-01
2.40000000000E+09	-1.34744108444E+01	-5.92532170229E-01
2.40000000000E+09	-1.34776357365E+01	-5.86416177149E-01
2.40000000000E+09	-1.34742143097E+01	-5.80045947725E-01
2.40000000000E+09	-1.34765037921E+01	-5.99961659977E-01
2.40000000000E+09	-1.34752855814E+01	-6.14608914012E-01
2.40000000000E+09	-1.34749845137E+01	-6.01800014417E-01
2.40000000000E+09	-1.34768604356E+01	-5.84442828624E-01
2.40000000000E+09	-1.34766172476E+01	-5.81354876217E-01
2.40000000000E+09	-1.34746969633E+01	-6.11511195288E-01
2.40000000000E+09	-1.34777279249E+01	-6.07872644595E-01
2.40000000000E+09	-1.34740575078E+01	-5.95175551575E-01
2.40000000000E+09	-1.34735585478E+01	-6.02131163841E-01
2.40000000000E+09	-1.34744985260E+01	-6.15897236874E-01
2.40000000000E+09	-1.34762222163E+01	-5.85885357013E-01
2.40000000000E+09	-1.34759696160E+01	-6.13166032608E-01
2.40000000000E+09	-1.34776139298E+01	-6.08363442024E-01
2.40000000000E+09	-1.34778293861E+01	-5.93060788455E-01
2.40000000000E+09	-1.34783814546E+01	-5.77025574191E-01
2.40000000000E+09	-1.34781399400E+01	-5.91021891626E-01
2.40000000000E+09	-1.34764527870E+01	-5.95404608344E-01
2.40000000000E+09	-1.34803444811E+01	-5.82287520435E-01
2.40000000000E+09	-1.34752988153E+01	-5.98709021159E-01
2.40000000000E+09	-1.34762800891E+01	-5.72884911296E-01
2.40000000000E+09	-1.34729414956E+01	-5.96265431179E-01
2.40000000000E+09	-1.34800742853E+01	-5.59092832845E-01
2.40000000000E+09	-1.34776879712E+01	-5.88819887867E-01
2.40000000000E+09	-1.34814657007E+01	-5.90410291079E-01
2.40000000000E+09	-1.34783231430E+01	-5.70637529830E-01
2.40000000000E+09	-1.34784332860E+01	-5.82220124644E-01
2.40000000000E+09	-1.34814288344E+01	-5.86071840214E-01
2.40000000000E+09	-1.34803157610E+01	-5.92052917978E-01
2.40000000000E+09	-1.34807529155E+01	-5.62730668911E-01
2.40000000000E+09	-1.34806505506E+01	-5.74199114818E-01
