# Hz S DB R 50
! CMT, C1209, 21460007, 21.4.4/2
! Date: 4/14/2023 1:54:20 PM
! Data: Format (Calibration Info)
! Freq	S11:dB/Ang(--)
2.40000000000E+09	-5.74815823106E+00	-8.15237409053E+01
2.40000000000E+09	-5.74888702975E+00	-8.15369450270E+01
2.40000000000E+09	-5.74704592377E+00	-8.15184286137E+01
2.40000000000E+09	-5.74788241820E+00	-8.15393646022E+01
2.40000000000E+09	-5.74869789039E+00	-8.15245471312E+01
2.40000000000E+09	-5.74804571416E+00	-8.15270557786E+01
2.40000000000E+09	-5.74590463756E+00	-8.15278255324E+01
2.40000000000E+09	-5.74716764602E+00	-8.15374965094E+01
2.40000000000E+09	-5.74744922326E+00	-8.15332215720E+01
2.40000000000E+09	-5.74977864409E+00	-8.15291420381E+01
2.40000000000E+09	-5.74605587283E+00	-8.15263958151E+01
2.40000000000E+09	-5.74776031741E+00	-8.15318702470E+01
2.40000000000E+09	-5.74635615877E+00	-8.15233942791E+01
2.40000000000E+09	-5.74742818945E+00	-8.15192265005E+01
2.40000000000E+09	-5.74698694189E+00	-8.15160826521E+01
2.40000000000E+09	-5.74802694383E+00	-8.15179101717E+01
2.40000000000E+09	-5.74644500766E+00	-8.15268403819E+01
2.40000000000E+09	-5.74667154970E+00	-8.15288476766E+01
2.40000000000E+09	-5.74801217836E+00	-8.15156015976E+01
2.40000000000E+09	-5.74711082875E+00	-8.15282540313E+01
2.40000000000E+09	-5.74738416054E+00	-8.15137247554E+01
2.40000000000E+09	-5.74683068553E+00	-8.15253103644E+01
2.40000000000E+09	-5.74807661153E+00	-8.15082982136E+01
2.40000000000E+09	-5.74600425118E+00	-8.15328605007E+01
2.40000000000E+09	-5.74655260898E+00	-8.15325272452E+01
2.40000000000E+09	-5.74459134161E+00	-8.15203685602E+01
2.40000000000E+09	-5.74604740746E+00	-8.15321940074E+01
2.40000000000E+09	-5.74766115403E+00	-8.15218971791E+01
2.40000000000E+09	-5.74704340936E+00	-8.15285917742E+01
2.40000000000E+09	-5.74859458962E+00	-8.15293050905E+01
2.40000000000E+09	-5.74480781955E+00	-8.15185033160E+01
2.40000000000E+09	-5.74701910800E+00	-8.15260711822E+01
2.40000000000E+09	-5.74626627279E+00	-8.15263248918E+01
2.40000000000E+09	-5.74578756576E+00	-8.15227718037E+01
2.40000000000E+09	-5.74598865980E+00	-8.15300203525E+01
2.40000000000E+09	-5.74938266088E+00	-8.15236829715E+01
2.40000000000E+09	-5.74585737186E+00	-8.15244636164E+01
2.40000000000E+09	-5.74983575514E+00	-8.15179051726E+01
2.40000000000E+09	-5.74618052186E+00	-8.15380901129E+01
2.40000000000E+09	-5.74642906677E+00	-8.15240164413E+01
2.40000000000E+09	-5.74696736461E+00	-8.15229124284E+01
2.40000000000E+09	-5.74754084231E+00	-8.15282352196E+01
2.40000000000E+09	-5.74835378405E+00	-8.15263672883E+01
2.40000000000E+09	-5.74880415547E+00	-8.15286598495E+01
2.40000000000E+09	-5.74732742098E+00	-8.15305471451E+01
2.40000000000E+09	-5.74820990993E+00	-8.15256887143E+01
2.40000000000E+09	-5.74665364213E+00	-8.15219708041E+01
2.40000000000E+09	-5.74852637228E+00	-8.15174004616E+01
2.40000000000E+09	-5.74815665234E+00	-8.15277115517E+01
2.40000000000E+09	-5.74827411898E+00	-8.15318285120E+01
2.40000000000E+09	-5.74700905560E+00	-8.15268189254E+01
2.40000000000E+09	-5.74720617756E+00	-8.15302282709E+01
2.40000000000E+09	-5.74708182946E+00	-8.15253690877E+01
2.40000000000E+09	-5.74961126731E+00	-8.15162310405E+01
2.40000000000E+09	-5.74707833262E+00	-8.15317377552E+01
2.40000000000E+09	-5.74893814541E+00	-8.15150475391E+01
2.40000000000E+09	-5.74602098801E+00	-8.15213828350E+01
2.40000000000E+09	-5.74921898541E+00	-8.15207267127E+01
2.40000000000E+09	-5.74900581485E+00	-8.15156541116E+01
2.40000000000E+09	-5.74687589476E+00	-8.15142156946E+01
2.40000000000E+09	-5.74513408165E+00	-8.15326485537E+01
2.40000000000E+09	-5.74651996145E+00	-8.15343727136E+01
2.40000000000E+09	-5.74875082025E+00	-8.15233704754E+01
2.40000000000E+09	-5.74840882369E+00	-8.15263175221E+01
2.40000000000E+09	-5.74686446516E+00	-8.15179384501E+01
2.40000000000E+09	-5.74649589201E+00	-8.15114276825E+01
2.40000000000E+09	-5.74634640637E+00	-8.15226782004E+01
2.40000000000E+09	-5.74789764084E+00	-8.15117103645E+01
2.40000000000E+09	-5.74686505723E+00	-8.15267631203E+01
2.40000000000E+09	-5.74771908777E+00	-8.15285965833E+01
2.40000000000E+09	-5.74655435966E+00	-8.15239521462E+01
2.40000000000E+09	-5.74886808295E+00	-8.15279786198E+01
2.40000000000E+09	-5.74645496080E+00	-8.15226160191E+01
2.40000000000E+09	-5.74869108103E+00	-8.15164764574E+01
2.40000000000E+09	-5.74703188709E+00	-8.15219381008E+01
2.40000000000E+09	-5.74840972195E+00	-8.15291666824E+01
2.40000000000E+09	-5.74744846865E+00	-8.15245937171E+01
2.40000000000E+09	-5.74657815981E+00	-8.15267124776E+01
2.40000000000E+09	-5.74714786448E+00	-8.15120065767E+01
2.40000000000E+09	-5.74742136200E+00	-8.15148223136E+01
2.40000000000E+09	-5.74730854655E+00	-8.15333867766E+01
2.40000000000E+09	-5.74743431969E+00	-8.15264032372E+01
2.40000000000E+09	-5.74745806301E+00	-8.15136242797E+01
2.40000000000E+09	-5.74754103982E+00	-8.15191318705E+01
2.40000000000E+09	-5.74791488020E+00	-8.15270344285E+01
2.40000000000E+09	-5.74794993107E+00	-8.15182233551E+01
2.40000000000E+09	-5.74817925129E+00	-8.15168263590E+01
2.40000000000E+09	-5.74784023631E+00	-8.15210292049E+01
2.40000000000E+09	-5.74766123960E+00	-8.15333525204E+01
2.40000000000E+09	-5.74660153453E+00	-8.15210724195E+01
2.40000000000E+09	-5.74763912295E+00	-8.15177807822E+01
2.40000000000E+09	-5.74705422373E+00	-8.15191208491E+01
2.40000000000E+09	-5.74757064433E+00	-8.15152825747E+01
2.40000000000E+09	-5.74618148712E+00	-8.15247533003E+01
2.40000000000E+09	-5.74827068160E+00	-8.15329448760E+01
2.40000000000E+09	-5.74652274135E+00	-8.15143087376E+01
2.40000000000E+09	-5.74615444177E+00	-8.15328116563E+01
2.40000000000E+09	-5.74726042246E+00	-8.15173148869E+01
2.40000000000E+09	-5.74659236479E+00	-8.15363639450E+01
2.40000000000E+09	-5.74746093941E+00	-8.15235125479E+01
2.40000000000E+09	-5.74637366787E+00	-8.15300144046E+01
2.40000000000E+09	-5.74702099347E+00	-8.15309317211E+01
2.40000000000E+09	-5.74822984171E+00	-8.15162374436E+01
2.40000000000E+09	-5.74728986808E+00	-8.15194695158E+01
2.40000000000E+09	-5.74977027706E+00	-8.15266375495E+01
2.40000000000E+09	-5.74795647290E+00	-8.15118882254E+01
2.40000000000E+09	-5.74765424696E+00	-8.15120939872E+01
2.40000000000E+09	-5.75073934676E+00	-8.15228113259E+01
2.40000000000E+09	-5.74701801520E+00	-8.15176281547E+01
2.40000000000E+09	-5.74931507140E+00	-8.15236398305E+01
2.40000000000E+09	-5.74702281105E+00	-8.15183897741E+01
2.40000000000E+09	-5.74754541356E+00	-8.15210032102E+01
2.40000000000E+09	-5.74640333302E+00	-8.15236854265E+01
2.40000000000E+09	-5.74817962990E+00	-8.15119295292E+01
2.40000000000E+09	-5.74931395182E+00	-8.15288229540E+01
2.40000000000E+09	-5.74888115396E+00	-8.15231783245E+01
2.40000000000E+09	-5.74919177211E+00	-8.15338521018E+01
2.40000000000E+09	-5.74704581664E+00	-8.15252227676E+01
2.40000000000E+09	-5.74850267796E+00	-8.15252941102E+01
2.40000000000E+09	-5.75081040031E+00	-8.15283197622E+01
2.40000000000E+09	-5.74940967867E+00	-8.15261508456E+01
2.40000000000E+09	-5.74828291005E+00	-8.15245826376E+01
2.40000000000E+09	-5.74934863553E+00	-8.15208970248E+01
2.40000000000E+09	-5.74736470366E+00	-8.15090931546E+01
2.40000000000E+09	-5.74862608007E+00	-8.15265839857E+01
2.40000000000E+09	-5.74746873611E+00	-8.15323089215E+01
2.40000000000E+09	-5.75011843215E+00	-8.15230872208E+01
2.40000000000E+09	-5.74875848741E+00	-8.15230879961E+01
2.40000000000E+09	-5.74886998852E+00	-8.15197974600E+01
2.40000000000E+09	-5.74776329897E+00	-8.15221518758E+01
2.40000000000E+09	-5.74864927801E+00	-8.15260086490E+01
2.40000000000E+09	-5.74874938425E+00	-8.15127482596E+01
2.40000000000E+09	-5.74894655912E+00	-8.15141819838E+01
2.40000000000E+09	-5.74771858706E+00	-8.15227640084E+01
2.40000000000E+09	-5.74714709852E+00	-8.15268236004E+01
2.40000000000E+09	-5.74967718092E+00	-8.15262573761E+01
2.40000000000E+09	-5.74708722019E+00	-8.15133443699E+01
2.40000000000E+09	-5.74991898544E+00	-8.15381620662E+01
2.40000000000E+09	-5.74856739128E+00	-8.15050300817E+01
2.40000000000E+09	-5.74901842717E+00	-8.15245290309E+01
2.40000000000E+09	-5.74868584166E+00	-8.15182357143E+01
2.40000000000E+09	-5.74767724219E+00	-8.15235157909E+01
2.40000000000E+09	-5.74785882452E+00	-8.15195455224E+01
2.40000000000E+09	-5.74934326822E+00	-8.15238190239E+01
2.40000000000E+09	-5.74944085855E+00	-8.15170902273E+01
2.40000000000E+09	-5.74832555325E+00	-8.15163566190E+01
2.40000000000E+09	-5.74727299344E+00	-8.15128045534E+01
2.40000000000E+09	-5.74966480757E+00	-8.15226994363E+01
2.40000000000E+09	-5.74718742107E+00	-8.15255410660E+01
2.40000000000E+09	-5.74756669195E+00	-8.15221395153E+01
2.40000000000E+09	-5.74670899217E+00	-8.15225615886E+01
2.40000000000E+09	-5.74775622430E+00	-8.15186173210E+01
2.40000000000E+09	-5.74901355851E+00	-8.15120243295E+01
2.40000000000E+09	-5.74843439694E+00	-8.15137892971E+01
2.40000000000E+09	-5.74826858409E+00	-8.15218563747E+01
2.40000000000E+09	-5.74846406685E+00	-8.15257765228E+01
2.40000000000E+09	-5.74699052643E+00	-8.15230904164E+01
2.40000000000E+09	-5.74681748047E+00	-8.15155802087E+01
2.40000000000E+09	-5.74770601646E+00	-8.15206698966E+01
2.40000000000E+09	-5.74798474887E+00	-8.15113705687E+01
2.40000000000E+09	-5.74776162523E+00	-8.15249526397E+01
2.40000000000E+09	-5.74789018461E+00	-8.15279111021E+01
2.40000000000E+09	-5.74777809191E+00	-8.15193441940E+01
2.40000000000E+09	-5.74861389404E+00	-8.15286907417E+01
2.40000000000E+09	-5.74724470493E+00	-8.15217622712E+01
2.40000000000E+09	-5.74858402646E+00	-8.15177858484E+01
2.40000000000E+09	-5.74855140757E+00	-8.15140666435E+01
2.40000000000E+09	-5.74960779625E+00	-8.15265859483E+01
2.40000000000E+09	-5.74974638557E+00	-8.15181295049E+01
2.40000000000E+09	-5.74858682932E+00	-8.15240309359E+01
2.40000000000E+09	-5.74897329222E+00	-8.15202924380E+01
2.40000000000E+09	-5.74858373384E+00	-8.15196278250E+01
2.40000000000E+09	-5.74930157759E+00	-8.15166610215E+01
2.40000000000E+09	-5.74898494540E+00	-8.15137981991E+01
2.40000000000E+09	-5.75083652066E+00	-8.15331792650E+01
2.40000000000E+09	-5.74875942716E+00	-8.15236748460E+01
2.40000000000E+09	-5.74833586284E+00	-8.15263067463E+01
2.40000000000E+09	-5.74874908796E+00	-8.15334867394E+01
2.40000000000E+09	-5.74895067280E+00	-8.15193991306E+01
2.40000000000E+09	-5.74798809527E+00	-8.15195272490E+01
2.40000000000E+09	-5.75045727073E+00	-8.15267640767E+01
2.40000000000E+09	-5.75066002266E+00	-8.15320286435E+01
2.40000000000E+09	-5.75063864454E+00	-8.15216729051E+01
2.40000000000E+09	-5.74915122849E+00	-8.15161345276E+01
2.40000000000E+09	-5.74854568616E+00	-8.15128590221E+01
2.40000000000E+09	-5.74908456869E+00	-8.15339073554E+01
2.40000000000E+09	-5.74717116377E+00	-8.15183607899E+01
2.40000000000E+09	-5.74788162570E+00	-8.15249843725E+01
2.40000000000E+09	-5.75000595501E+00	-8.15188776511E+01
2.40000000000E+09	-5.74942010806E+00	-8.15240491499E+01
2.40000000000E+09	-5.74847009875E+00	-8.15273236159E+01
2.40000000000E+09	-5.74899270801E+00	-8.15270577919E+01
2.40000000000E+09	-5.74903220509E+00	-8.15205341541E+01
2.40000000000E+09	-5.74631704926E+00	-8.15223844070E+01
2.40000000000E+09	-5.75076063771E+00	-8.15280373034E+01
2.40000000000E+09	-5.74891123204E+00	-8.15283799858E+01
2.40000000000E+09	-5.74741346873E+00	-8.15172454119E+01
2.40000000000E+09	-5.74874697875E+00	-8.15133632912E+01
2.40000000000E+09	-5.74977627763E+00	-8.15233074022E+01
2.40000000000E+09	-5.74774328521E+00	-8.15166597573E+01
2.40000000000E+09	-5.74862105302E+00	-8.15220392065E+01
2.40000000000E+09	-5.74828355058E+00	-8.15232689363E+01
2.40000000000E+09	-5.74773372464E+00	-8.15212351550E+01
2.40000000000E+09	-5.74950698782E+00	-8.15297634429E+01
2.40000000000E+09	-5.74886236419E+00	-8.15425422586E+01
2.40000000000E+09	-5.74936147192E+00	-8.15228285997E+01
2.40000000000E+09	-5.74590469579E+00	-8.15253446686E+01
2.40000000000E+09	-5.74950050786E+00	-8.15190399233E+01
2.40000000000E+09	-5.74896485785E+00	-8.15327932313E+01
2.40000000000E+09	-5.74894243751E+00	-8.15194283284E+01
2.40000000000E+09	-5.74716505097E+00	-8.15233494131E+01
2.40000000000E+09	-5.75045905315E+00	-8.15195602475E+01
2.40000000000E+09	-5.74926911575E+00	-8.15256739378E+01
2.40000000000E+09	-5.74968098677E+00	-8.15280369599E+01
2.40000000000E+09	-5.74728503031E+00	-8.15171211608E+01
2.40000000000E+09	-5.74981928039E+00	-8.15132675773E+01
2.40000000000E+09	-5.74855427699E+00	-8.15184721681E+01
2.40000000000E+09	-5.74838064114E+00	-8.15205263890E+01
2.40000000000E+09	-5.74894454934E+00	-8.15248491609E+01
2.40000000000E+09	-5.74875618280E+00	-8.15184177081E+01
2.40000000000E+09	-5.74839319539E+00	-8.15325668494E+01
2.40000000000E+09	-5.74975963123E+00	-8.15253913361E+01
2.40000000000E+09	-5.75086116509E+00	-8.15300766089E+01
2.40000000000E+09	-5.74781356346E+00	-8.15196960210E+01
2.40000000000E+09	-5.74852942355E+00	-8.15115084514E+01
2.40000000000E+09	-5.74887555631E+00	-8.15249893593E+01
2.40000000000E+09	-5.74696174814E+00	-8.15091780065E+01
2.40000000000E+09	-5.74886019546E+00	-8.15225462371E+01
2.40000000000E+09	-5.75004074983E+00	-8.15244774264E+01
2.40000000000E+09	-5.74839480087E+00	-8.15262174220E+01
2.40000000000E+09	-5.74810919359E+00	-8.15309700029E+01
2.40000000000E+09	-5.74902305199E+00	-8.15176201397E+01
2.40000000000E+09	-5.74928198938E+00	-8.15129426278E+01
2.40000000000E+09	-5.74923140378E+00	-8.15223367663E+01
2.40000000000E+09	-5.74900452429E+00	-8.15213084468E+01
2.40000000000E+09	-5.74771888627E+00	-8.15200921628E+01
2.40000000000E+09	-5.74699361213E+00	-8.15244398789E+01
2.40000000000E+09	-5.74875180530E+00	-8.15166356775E+01
2.40000000000E+09	-5.74935167977E+00	-8.15223081355E+01
2.40000000000E+09	-5.74911640037E+00	-8.15165988760E+01
2.40000000000E+09	-5.74779473870E+00	-8.15118523310E+01
2.40000000000E+09	-5.74862974873E+00	-8.15202280829E+01
2.40000000000E+09	-5.74996911144E+00	-8.15304521722E+01
2.40000000000E+09	-5.74880152610E+00	-8.15093567307E+01
2.40000000000E+09	-5.74770677511E+00	-8.15305840301E+01
2.40000000000E+09	-5.75026848250E+00	-8.15232905009E+01
2.40000000000E+09	-5.74862257367E+00	-8.15263255356E+01
2.40000000000E+09	-5.74857427741E+00	-8.15291707764E+01
2.40000000000E+09	-5.74632632234E+00	-8.15223352766E+01
2.40000000000E+09	-5.74980382559E+00	-8.15276009126E+01
2.40000000000E+09	-5.74677199738E+00	-8.15171842169E+01
2.40000000000E+09	-5.75005161150E+00	-8.15228095914E+01
2.40000000000E+09	-5.75061009852E+00	-8.15310319256E+01
2.40000000000E+09	-5.74896752546E+00	-8.15171815266E+01
2.40000000000E+09	-5.74942467094E+00	-8.15243028568E+01
2.40000000000E+09	-5.74887054699E+00	-8.15143365025E+01
2.40000000000E+09	-5.74820733126E+00	-8.15185400388E+01
2.40000000000E+09	-5.74901094454E+00	-8.15305951140E+01
2.40000000000E+09	-5.74835975947E+00	-8.15225168836E+01
2.40000000000E+09	-5.74943209986E+00	-8.15194136294E+01
2.40000000000E+09	-5.74707183965E+00	-8.15153435362E+01
2.40000000000E+09	-5.74929196511E+00	-8.15255752369E+01
2.40000000000E+09	-5.75024063714E+00	-8.15164223062E+01
2.40000000000E+09	-5.74798711931E+00	-8.15118924426E+01
2.40000000000E+09	-5.74994592634E+00	-8.15108119054E+01
2.40000000000E+09	-5.74898884018E+00	-8.15207456241E+01
2.40000000000E+09	-5.74948006652E+00	-8.15168212497E+01
2.40000000000E+09	-5.74953052574E+00	-8.15164740587E+01
2.40000000000E+09	-5.74848518180E+00	-8.15147581556E+01
2.40000000000E+09	-5.74956240027E+00	-8.15144368261E+01
2.40000000000E+09	-5.74883671501E+00	-8.15310017963E+01
2.40000000000E+09	-5.74805753825E+00	-8.15263600208E+01
2.40000000000E+09	-5.75059042536E+00	-8.15203483561E+01
2.40000000000E+09	-5.75024243147E+00	-8.15262084878E+01
2.40000000000E+09	-5.74672506180E+00	-8.15243934775E+01
2.40000000000E+09	-5.74850379309E+00	-8.15297956874E+01
2.40000000000E+09	-5.75060821387E+00	-8.15151978250E+01
2.40000000000E+09	-5.74867015531E+00	-8.15327631879E+01
2.40000000000E+09	-5.74963379810E+00	-8.15103999558E+01
2.40000000000E+09	-5.74967770303E+00	-8.15246965242E+01
2.40000000000E+09	-5.74867628138E+00	-8.15166358800E+01
2.40000000000E+09	-5.74862207597E+00	-8.15204394202E+01
2.40000000000E+09	-5.74970606298E+00	-8.15110282025E+01
2.40000000000E+09	-5.74852241918E+00	-8.15134739660E+01
2.40000000000E+09	-5.74783280500E+00	-8.15190339840E+01
2.40000000000E+09	-5.75070389080E+00	-8.15175762878E+01
2.40000000000E+09	-5.74956738927E+00	-8.15167388739E+01
2.40000000000E+09	-5.74929936889E+00	-8.15201099949E+01
2.40000000000E+09	-5.74827904165E+00	-8.15205414342E+01
2.40000000000E+09	-5.74740761844E+00	-8.15198853215E+01
2.40000000000E+09	-5.74818403530E+00	-8.15262329035E+01
2.40000000000E+09	-5.74751674538E+00	-8.15121683338E+01
2.40000000000E+09	-5.74943376628E+00	-8.15343469901E+01
2.40000000000E+09	-5.74863380289E+00	-8.15197415169E+01
2.40000000000E+09	-5.75021384266E+00	-8.15183136684E+01
2.40000000000E+09	-5.74863748636E+00	-8.15230601720E+01
2.40000000000E+09	-5.74782451499E+00	-8.15168958169E+01
2.40000000000E+09	-5.74866811761E+00	-8.15289758415E+01
2.40000000000E+09	-5.74947280287E+00	-8.15303417881E+01
2.40000000000E+09	-5.74882710876E+00	-8.15292349341E+01
2.40000000000E+09	-5.75189760901E+00	-8.15165277243E+01
2.40000000000E+09	-5.74697290440E+00	-8.15192473996E+01
2.40000000000E+09	-5.74735313674E+00	-8.15241616126E+01
2.40000000000E+09	-5.74939747141E+00	-8.15166061704E+01
2.40000000000E+09	-5.75036987473E+00	-8.15195374987E+01
2.40000000000E+09	-5.74875337941E+00	-8.15199084045E+01
2.40000000000E+09	-5.74839048504E+00	-8.15148106782E+01
2.40000000000E+09	-5.74884720108E+00	-8.15243864507E+01
2.40000000000E+09	-5.74925029121E+00	-8.15101408769E+01
2.40000000000E+09	-5.74867451919E+00	-8.15096956912E+01
2.40000000000E+09	-5.74862945190E+00	-8.15226412230E+01
2.40000000000E+09	-5.74970448401E+00	-8.15171563257E+01
2.40000000000E+09	-5.74965416958E+00	-8.15180617067E+01
2.40000000000E+09	-5.74897016415E+00	-8.15214724613E+01
2.40000000000E+09	-5.74939451701E+00	-8.15235433333E+01
2.40000000000E+09	-5.75103198950E+00	-8.15287743692E+01
2.40000000000E+09	-5.75062116865E+00	-8.15347763601E+01
2.40000000000E+09	-5.75108663928E+00	-8.15208200638E+01
2.40000000000E+09	-5.75072842640E+00	-8.15139389317E+01
2.40000000000E+09	-5.74896351077E+00	-8.15277162815E+01
2.40000000000E+09	-5.75047717326E+00	-8.15155936192E+01
2.40000000000E+09	-5.75079394780E+00	-8.15168845284E+01
2.40000000000E+09	-5.74752925373E+00	-8.15196268756E+01
2.40000000000E+09	-5.74971307022E+00	-8.15257547764E+01
2.40000000000E+09	-5.74816672477E+00	-8.15210879778E+01
2.40000000000E+09	-5.75013546823E+00	-8.15253994706E+01
2.40000000000E+09	-5.75016611509E+00	-8.15219046136E+01
2.40000000000E+09	-5.75041861738E+00	-8.15183913526E+01
2.40000000000E+09	-5.75040003689E+00	-8.15188491574E+01
2.40000000000E+09	-5.75152486872E+00	-8.15220205101E+01
2.40000000000E+09	-5.74910871685E+00	-8.15212997617E+01
2.40000000000E+09	-5.74833018224E+00	-8.15153719789E+01
2.40000000000E+09	-5.74964015677E+00	-8.15115504512E+01
2.40000000000E+09	-5.75021024486E+00	-8.15186201183E+01
2.40000000000E+09	-5.74984719539E+00	-8.15179825618E+01
2.40000000000E+09	-5.74739407584E+00	-8.15167291045E+01
2.40000000000E+09	-5.75022962699E+00	-8.15095129593E+01
2.40000000000E+09	-5.74806933320E+00	-8.15234166425E+01
2.40000000000E+09	-5.74900328823E+00	-8.15256934606E+01
2.40000000000E+09	-5.75012841191E+00	-8.15134409249E+01
2.40000000000E+09	-5.74973581684E+00	-8.15223464169E+01
2.40000000000E+09	-5.74938160245E+00	-8.15171573732E+01
2.40000000000E+09	-5.74828062428E+00	-8.15113743605E+01
2.40000000000E+09	-5.75219335811E+00	-8.15200686769E+01
2.40000000000E+09	-5.74998308187E+00	-8.15238259726E+01
2.40000000000E+09	-5.75099418165E+00	-8.15093342212E+01
2.40000000000E+09	-5.75021356524E+00	-8.15273843925E+01
2.40000000000E+09	-5.74783198614E+00	-8.14987648205E+01
2.40000000000E+09	-5.74758315820E+00	-8.15099354336E+01
2.40000000000E+09	-5.74805857950E+00	-8.15237352980E+01
2.40000000000E+09	-5.74838886115E+00	-8.15102179528E+01
2.40000000000E+09	-5.74829470052E+00	-8.15115514191E+01
2.40000000000E+09	-5.74908948711E+00	-8.15212382504E+01
2.40000000000E+09	-5.74883099430E+00	-8.15117237911E+01
