# Hz S DB R 50
! CMT, C1209, 21460007, 21.4.4/2
! Date: 4/14/2023 1:47:44 PM
! Data: Format (Calibration Info)
! Freq	S11:dB/Ang(--)
1.00000000000E+05	-2.29543586633E-02	1.79484949792E+02
1.90034006801E+06	-7.46004547287E-02	1.73502162929E+02
3.70068013603E+06	-1.01111277162E-01	1.67614799848E+02
5.50102020404E+06	-1.20748788235E-01	1.61788894926E+02
7.30136027205E+06	-1.36697365755E-01	1.55992623203E+02
9.10170034007E+06	-1.49533994285E-01	1.50212226409E+02
1.09020404081E+07	-1.57886868126E-01	1.44421778244E+02
1.27023804761E+07	-1.76443542676E-01	1.38632805280E+02
1.45027205441E+07	-1.83890103750E-01	1.32870177139E+02
1.63030606121E+07	-1.90690287568E-01	1.27099279343E+02
1.81034006801E+07	-2.00144128004E-01	1.21307456687E+02
1.99037407481E+07	-2.05498196177E-01	1.15541232700E+02
2.17040808162E+07	-2.09830752180E-01	1.09785436024E+02
2.35044208842E+07	-2.12547423900E-01	1.03993900639E+02
2.53047609522E+07	-2.16545384360E-01	9.82240845421E+01
2.71051010202E+07	-2.21699032145E-01	9.24514169959E+01
2.89054410882E+07	-2.21721433342E-01	8.66649452463E+01
3.07057811562E+07	-2.24256566977E-01	8.08969593568E+01
3.25061212242E+07	-2.24419429585E-01	7.51013588492E+01
3.43064612923E+07	-2.26846717261E-01	6.92989582363E+01
3.61068013603E+07	-2.24129357240E-01	6.35112595898E+01
3.79071414283E+07	-2.20955518873E-01	5.77033485296E+01
3.97074814963E+07	-2.22756569667E-01	5.18959978823E+01
4.15078215643E+07	-2.19321713093E-01	4.60854811364E+01
4.33081616323E+07	-2.18951910241E-01	4.02684855078E+01
4.51085017003E+07	-2.16826271146E-01	3.44347442689E+01
4.69088417684E+07	-2.13365275960E-01	2.86270752098E+01
4.87091818364E+07	-2.10637481444E-01	2.28038473764E+01
5.05095219044E+07	-2.07868213862E-01	1.69707457511E+01
5.23098619724E+07	-2.04391517833E-01	1.11398333704E+01
5.41102020404E+07	-2.02512462789E-01	5.29727263096E+00
5.59105421084E+07	-2.00092511477E-01	-5.40736687661E-01
5.77108821764E+07	-1.96254767355E-01	-6.38405520379E+00
5.95112222444E+07	-1.95612267761E-01	-1.22250394997E+01
6.13115623125E+07	-1.94600991691E-01	-1.80732103939E+01
6.31119023805E+07	-1.93803561218E-01	-2.39123812095E+01
6.49122424485E+07	-1.90214219196E-01	-2.97507516336E+01
6.67125825165E+07	-1.93553149888E-01	-3.55875132210E+01
6.85129225845E+07	-1.93549040988E-01	-4.14309562446E+01
7.03132626525E+07	-1.92617629487E-01	-4.72689396750E+01
7.21136027205E+07	-1.91787251873E-01	-5.31018035232E+01
7.39139427886E+07	-1.93754137465E-01	-5.89372765481E+01
7.57142828566E+07	-1.94766445000E-01	-6.47585322822E+01
7.75146229246E+07	-1.97621668263E-01	-7.05883525978E+01
7.93149629926E+07	-2.00555015894E-01	-7.64128061073E+01
8.11153030606E+07	-2.02354837369E-01	-8.22211457125E+01
8.29156431286E+07	-2.07104803978E-01	-8.80240215335E+01
8.47159831966E+07	-2.12274640832E-01	-9.38222714547E+01
8.65163232647E+07	-2.14827506169E-01	-9.96248126812E+01
8.83166633327E+07	-2.23498835710E-01	-1.05411719216E+02
9.01170034007E+07	-2.27426442413E-01	-1.11213543353E+02
9.19173434687E+07	-2.31606279436E-01	-1.16985267651E+02
9.37176835367E+07	-2.39990820374E-01	-1.22751485454E+02
9.55180236047E+07	-2.45900362296E-01	-1.28528586582E+02
9.73183636727E+07	-2.52837652250E-01	-1.34283449705E+02
9.91187037407E+07	-2.58304714127E-01	-1.40038702835E+02
1.00919043809E+08	-2.68616810328E-01	-1.45786763769E+02
1.02719383877E+08	-2.74113749155E-01	-1.51540550863E+02
1.04519723945E+08	-2.83994825679E-01	-1.57281650224E+02
1.06320064013E+08	-2.90499047579E-01	-1.63023609370E+02
1.08120404081E+08	-2.98078583441E-01	-1.68744412286E+02
1.09920744149E+08	-3.06021481284E-01	-1.74485922384E+02
1.11721084217E+08	-3.13023607353E-01	1.79781955338E+02
1.13521424285E+08	-3.22404361346E-01	1.74067978312E+02
1.15321764353E+08	-3.29140227913E-01	1.68349207434E+02
1.17122104421E+08	-3.37913811443E-01	1.62620445573E+02
1.18922444489E+08	-3.45034896443E-01	1.56895631859E+02
1.20722784557E+08	-3.48427445091E-01	1.51183807793E+02
1.22523124625E+08	-3.54693063332E-01	1.45475719633E+02
1.24323464693E+08	-3.62426633283E-01	1.39743166021E+02
1.26123804761E+08	-3.67046410410E-01	1.34007605034E+02
1.27924144829E+08	-3.72890258921E-01	1.28291020557E+02
1.29724484897E+08	-3.76653205072E-01	1.22565751327E+02
1.31524824965E+08	-3.83375751181E-01	1.16822535241E+02
1.33325165033E+08	-3.86584537279E-01	1.11100513119E+02
1.35125505101E+08	-3.88606802241E-01	1.05361195601E+02
1.36925845169E+08	-3.91985684400E-01	9.96277671611E+01
1.38726185237E+08	-3.94092104416E-01	9.38694891445E+01
1.40526525305E+08	-3.97168377749E-01	8.81184678330E+01
1.42326865373E+08	-3.98260137526E-01	8.23742106987E+01
1.44127205441E+08	-3.99194335119E-01	7.65926835408E+01
1.45927545509E+08	-4.00407574566E-01	7.08158012373E+01
1.47727885577E+08	-4.00618720435E-01	6.50553939760E+01
1.49528225645E+08	-4.00448107413E-01	5.92826193843E+01
1.51328565713E+08	-4.00247323538E-01	5.34722713566E+01
1.53128905781E+08	-4.00684018293E-01	4.76897366062E+01
1.54929245849E+08	-3.97692210709E-01	4.18916084597E+01
1.56729585917E+08	-3.97651661738E-01	3.60830496113E+01
1.58529925985E+08	-3.94408487709E-01	3.02825591130E+01
1.60330266053E+08	-3.95011629060E-01	2.44644952677E+01
1.62130606121E+08	-3.92020980462E-01	1.86420642251E+01
1.63930946189E+08	-3.92309129154E-01	1.28140245034E+01
1.65731286257E+08	-3.90392059672E-01	6.98342292116E+00
1.67531626325E+08	-3.86426444334E-01	1.16487477445E+00
1.69331966393E+08	-3.86015991009E-01	-4.68092490826E+00
1.71132306461E+08	-3.83222954005E-01	-1.05022525405E+01
1.72932646529E+08	-3.81686154765E-01	-1.63558656416E+01
1.74732986597E+08	-3.80745374116E-01	-2.21985983088E+01
1.76533326665E+08	-3.77960611312E-01	-2.80341473801E+01
1.78333666733E+08	-3.77892262299E-01	-3.38703221529E+01
1.80134006801E+08	-3.77331876350E-01	-3.97040312696E+01
1.81934346869E+08	-3.75923701167E-01	-4.55520516494E+01
1.83734686937E+08	-3.76141668542E-01	-5.13757965605E+01
1.85535027005E+08	-3.73959894751E-01	-5.72198581414E+01
1.87335367073E+08	-3.77420209152E-01	-6.30453517119E+01
1.89135707141E+08	-3.79176820883E-01	-6.88759585531E+01
1.90936047209E+08	-3.80927492795E-01	-7.46795290684E+01
1.92736387277E+08	-3.81888387366E-01	-8.05031693568E+01
1.94536727345E+08	-3.84241822582E-01	-8.63306572165E+01
1.96337067413E+08	-3.86490248355E-01	-9.21199154110E+01
1.98137407481E+08	-3.89836185139E-01	-9.79346560262E+01
1.99937747550E+08	-3.94612941113E-01	-1.03726559925E+02
2.01738087618E+08	-3.97714711014E-01	-1.09523609750E+02
2.03538427686E+08	-4.03843373584E-01	-1.15293662967E+02
2.05338767754E+08	-4.05270855755E-01	-1.21076973077E+02
2.07139107822E+08	-4.11873058399E-01	-1.26851249658E+02
2.08939447890E+08	-4.17021952842E-01	-1.32611729408E+02
2.10739787958E+08	-4.24506217628E-01	-1.38359196465E+02
2.12540128026E+08	-4.27285460573E-01	-1.44125711885E+02
2.14340468094E+08	-4.33758980785E-01	-1.49865297577E+02
2.16140808162E+08	-4.40675903643E-01	-1.55599420126E+02
2.17941148230E+08	-4.46466822274E-01	-1.61343759509E+02
2.19741488298E+08	-4.50866784985E-01	-1.67072731063E+02
2.21541828366E+08	-4.58711615055E-01	-1.72805863708E+02
2.23342168434E+08	-4.64567489739E-01	-1.78513404295E+02
2.25142508502E+08	-4.71231466803E-01	1.75760688935E+02
2.26942848570E+08	-4.76770407649E-01	1.70040763345E+02
2.28743188638E+08	-4.82213996315E-01	1.64336552729E+02
2.30543528706E+08	-4.89351982696E-01	1.58640929589E+02
2.32343868774E+08	-4.93651570866E-01	1.52918147139E+02
2.34144208842E+08	-4.97256259796E-01	1.47216519703E+02
2.35944548910E+08	-5.03648152459E-01	1.41498759415E+02
2.37744888978E+08	-5.09587205305E-01	1.35791787800E+02
2.39545229046E+08	-5.12062072317E-01	1.30090709265E+02
2.41345569114E+08	-5.14952233773E-01	1.24377317525E+02
2.43145909182E+08	-5.21056155857E-01	1.18656246727E+02
2.44946249250E+08	-5.23596616533E-01	1.12939130089E+02
2.46746589318E+08	-5.25432041927E-01	1.07212418757E+02
2.48546929386E+08	-5.27819626782E-01	1.01500371012E+02
2.50347269454E+08	-5.30142872173E-01	9.57774136930E+01
2.52147609522E+08	-5.30441290903E-01	9.00343693562E+01
2.53947949590E+08	-5.33566034055E-01	8.42926621418E+01
2.55748289658E+08	-5.34129697653E-01	7.85472939205E+01
2.57548629726E+08	-5.32567753455E-01	7.27946389139E+01
2.59348969794E+08	-5.33272242077E-01	6.70392915439E+01
2.61149309862E+08	-5.33013778882E-01	6.12828019492E+01
2.62949649930E+08	-5.30067103773E-01	5.55097826972E+01
2.64749989998E+08	-5.29662224385E-01	4.97392279562E+01
2.66550330066E+08	-5.28030620676E-01	4.39487674290E+01
2.68350670134E+08	-5.26099158470E-01	3.81657155487E+01
2.70151010202E+08	-5.26275929066E-01	3.23754316346E+01
2.71951350270E+08	-5.23947281753E-01	2.65619825349E+01
2.73751690338E+08	-5.20965523555E-01	2.07683742615E+01
2.75552030406E+08	-5.19672986650E-01	1.49415902303E+01
2.77352370474E+08	-5.18292393452E-01	9.13774566523E+00
2.79152710542E+08	-5.13275364589E-01	3.29953884212E+00
2.80953050610E+08	-5.10569570198E-01	-2.50967873772E+00
2.82753390678E+08	-5.09953621435E-01	-8.36394905176E+00
2.84553730746E+08	-5.07616325810E-01	-1.41908651814E+01
2.86354070814E+08	-5.05267565457E-01	-2.00383782985E+01
2.88154410882E+08	-5.03412732570E-01	-2.58664315422E+01
2.89954750950E+08	-5.02586230110E-01	-3.17061584092E+01
2.91755091018E+08	-4.98790292867E-01	-3.75573546525E+01
2.93555431086E+08	-4.99473924167E-01	-4.33882632838E+01
2.95355771154E+08	-4.97956211521E-01	-4.92429749769E+01
2.97156111222E+08	-4.97177836726E-01	-5.50876280373E+01
2.98956451290E+08	-4.98882234924E-01	-6.09153783765E+01
3.00756791358E+08	-4.95816375475E-01	-6.67595466588E+01
3.02557131426E+08	-4.98726012274E-01	-7.25890531080E+01
3.04357471494E+08	-4.99936555102E-01	-7.84244160969E+01
3.06157811562E+08	-5.01377086057E-01	-8.42538630508E+01
3.07958151630E+08	-5.04931252955E-01	-9.00728115837E+01
3.09758491698E+08	-5.05449800111E-01	-9.58991186993E+01
3.11558831766E+08	-5.07873129300E-01	-1.01722108573E+02
3.13359171834E+08	-5.10533930415E-01	-1.07511137435E+02
3.15159511902E+08	-5.14326539913E-01	-1.13320291627E+02
3.16959851970E+08	-5.18282564023E-01	-1.19108413117E+02
3.18760192038E+08	-5.22178091266E-01	-1.24898513402E+02
3.20560532106E+08	-5.29776200709E-01	-1.30660125180E+02
3.22360872174E+08	-5.32576709050E-01	-1.36440577238E+02
3.24161212242E+08	-5.36086682590E-01	-1.42237988618E+02
3.25961552310E+08	-5.41612288770E-01	-1.47984079883E+02
3.27761892378E+08	-5.47730749094E-01	-1.53743216667E+02
3.29562232446E+08	-5.53561565184E-01	-1.59480333678E+02
3.31362572515E+08	-5.58816553886E-01	-1.65229194422E+02
3.33162912583E+08	-5.62477247099E-01	-1.70968655961E+02
3.34963252651E+08	-5.68945125579E-01	-1.76697074817E+02
3.36763592719E+08	-5.75179756826E-01	1.77582708056E+02
3.38563932787E+08	-5.79170108363E-01	1.71865438593E+02
3.40364272855E+08	-5.86885763247E-01	1.66130168313E+02
3.42164612923E+08	-5.91138815483E-01	1.60422900942E+02
3.43964952991E+08	-5.96777287669E-01	1.54736978123E+02
3.45765293059E+08	-5.99830196832E-01	1.49018150384E+02
3.47565633127E+08	-6.05371062556E-01	1.43311911068E+02
3.49365973195E+08	-6.09151522248E-01	1.37602627077E+02
3.51166313263E+08	-6.12160667012E-01	1.31897689574E+02
3.52966653331E+08	-6.14910628685E-01	1.26196015838E+02
3.54766993399E+08	-6.18426766440E-01	1.20500389495E+02
3.56567333467E+08	-6.21260489704E-01	1.14790575771E+02
3.58367673535E+08	-6.25179975216E-01	1.09090115473E+02
3.60168013603E+08	-6.25403451274E-01	1.03388874101E+02
3.61968353671E+08	-6.24521314598E-01	9.76624345023E+01
3.63768693739E+08	-6.28172774083E-01	9.19460237103E+01
3.65569033807E+08	-6.30311849849E-01	8.62308769900E+01
3.67369373875E+08	-6.29937458880E-01	8.05018611584E+01
3.69169713943E+08	-6.29121121738E-01	7.47824942105E+01
3.70970054011E+08	-6.30748772572E-01	6.90555484946E+01
3.72770394079E+08	-6.28324503405E-01	6.33125250495E+01
3.74570734147E+08	-6.28216227171E-01	5.75432358399E+01
3.76371074215E+08	-6.25454901514E-01	5.18090422526E+01
3.78171414283E+08	-6.24714726307E-01	4.60694751533E+01
3.79971754351E+08	-6.21316332493E-01	4.03041792329E+01
3.81772094419E+08	-6.18968720987E-01	3.45347855316E+01
3.83572434487E+08	-6.18596459785E-01	2.87459859226E+01
3.85372774555E+08	-6.15105190419E-01	2.29704062186E+01
3.87173114623E+08	-6.13351621217E-01	1.71832425065E+01
3.88973454691E+08	-6.09758343252E-01	1.13693968013E+01
3.90773794759E+08	-6.07494564175E-01	5.57363162295E+00
3.92574134827E+08	-6.05389673960E-01	-2.34838824082E-01
3.94374474895E+08	-6.02830625721E-01	-6.03478385813E+00
3.96174814963E+08	-6.00042463159E-01	-1.18653750332E+01
3.97975155031E+08	-5.96236664243E-01	-1.76952197440E+01
3.99775495099E+08	-5.95019380766E-01	-2.35148016889E+01
4.01575835167E+08	-5.94678543548E-01	-2.93461147894E+01
4.03376175235E+08	-5.92861763862E-01	-3.51790020597E+01
4.05176515303E+08	-5.90763144369E-01	-4.10019840557E+01
4.06976855371E+08	-5.87600328822E-01	-4.68466503355E+01
4.08777195439E+08	-5.89136588186E-01	-5.26856781641E+01
4.10577535507E+08	-5.89137523134E-01	-5.85214019764E+01
4.12377875575E+08	-5.86779446291E-01	-6.43452182376E+01
4.14178215643E+08	-5.87548044940E-01	-7.02005926210E+01
4.15978555711E+08	-5.89527257553E-01	-7.60252105656E+01
4.17778895779E+08	-5.90571193150E-01	-8.18767596718E+01
4.19579235847E+08	-5.91946898837E-01	-8.77010821176E+01
4.21379575915E+08	-5.93376213093E-01	-9.35224234681E+01
4.23179915983E+08	-5.94967934012E-01	-9.93523582018E+01
4.24980256051E+08	-5.97927832949E-01	-1.05160659521E+02
4.26780596119E+08	-6.00592364155E-01	-1.10974161194E+02
4.28580936187E+08	-6.03420232509E-01	-1.16785537521E+02
4.30381276255E+08	-6.07253441128E-01	-1.22599206325E+02
4.32181616323E+08	-6.12547357463E-01	-1.28382687484E+02
4.33981956391E+08	-6.16894722260E-01	-1.34167278121E+02
4.35782296459E+08	-6.20517558456E-01	-1.39978772189E+02
4.37582636527E+08	-6.25792189394E-01	-1.45744136850E+02
4.39382976595E+08	-6.31306522171E-01	-1.51526355253E+02
4.41183316663E+08	-6.35431984562E-01	-1.57275001373E+02
4.42983656731E+08	-6.40680320692E-01	-1.63029382579E+02
4.44783996799E+08	-6.45871539517E-01	-1.68786530744E+02
4.46584336867E+08	-6.51984185303E-01	-1.74533797087E+02
4.48384676935E+08	-6.56124809078E-01	1.79726207795E+02
4.50185017003E+08	-6.60201356529E-01	1.73989209580E+02
4.51985357071E+08	-6.66806531889E-01	1.68259692347E+02
4.53785697139E+08	-6.71206519938E-01	1.62539954316E+02
4.55586037207E+08	-6.75448462779E-01	1.56820489027E+02
4.57386377275E+08	-6.78258756981E-01	1.51093246608E+02
4.59186717343E+08	-6.83456321084E-01	1.45389983141E+02
4.60987057411E+08	-6.87109660898E-01	1.39675511529E+02
4.62787397479E+08	-6.91739775786E-01	1.33975132154E+02
4.64587737548E+08	-6.94880803643E-01	1.28271890198E+02
4.66388077616E+08	-6.98376181963E-01	1.22568385248E+02
4.68188417684E+08	-6.99864319454E-01	1.16876472493E+02
4.69988757752E+08	-7.02222476650E-01	1.11169399224E+02
4.71789097820E+08	-7.06366377571E-01	1.05481209442E+02
4.73589437888E+08	-7.07112384146E-01	9.97702283240E+01
4.75389777956E+08	-7.07190409609E-01	9.40745738542E+01
4.77190118024E+08	-7.08338889979E-01	8.83558036680E+01
4.78990458092E+08	-7.06849726519E-01	8.26455836868E+01
4.80790798160E+08	-7.07979945095E-01	7.69351077905E+01
4.82591138228E+08	-7.06467689433E-01	7.12229120056E+01
4.84391478296E+08	-7.06484657601E-01	6.55032103909E+01
4.86191818364E+08	-7.04129410289E-01	5.97876713724E+01
4.87992158432E+08	-7.03280886761E-01	5.40495337227E+01
4.89792498500E+08	-7.04093019919E-01	4.83238959019E+01
4.91592838568E+08	-6.99565109347E-01	4.25782731019E+01
4.93393178636E+08	-6.99115134165E-01	3.68303335227E+01
4.95193518704E+08	-6.95335318952E-01	3.10773811472E+01
4.96993858772E+08	-6.90470745432E-01	2.53054637197E+01
4.98794198840E+08	-6.90722404325E-01	1.95618932945E+01
5.00594538908E+08	-6.87016659040E-01	1.37732512976E+01
5.02394878976E+08	-6.83727237102E-01	8.01145854042E+00
5.04195219044E+08	-6.81847068536E-01	2.20640884589E+00
5.05995559112E+08	-6.80576558546E-01	-3.57514729113E+00
5.07795899180E+08	-6.76947145689E-01	-9.37344093939E+00
5.09596239248E+08	-6.75741680219E-01	-1.51726076016E+01
5.11396579316E+08	-6.72559359745E-01	-2.09783743298E+01
5.13196919384E+08	-6.67945444952E-01	-2.68013551177E+01
5.14997259452E+08	-6.65987105354E-01	-3.26160584021E+01
5.16797599520E+08	-6.65124886846E-01	-3.84396197397E+01
5.18597939588E+08	-6.64619624565E-01	-4.42567890448E+01
5.20398279656E+08	-6.62638136179E-01	-5.00970098966E+01
5.22198619724E+08	-6.63168329131E-01	-5.59264421829E+01
5.23998959792E+08	-6.60970416345E-01	-6.17534410739E+01
5.25799299860E+08	-6.61587410096E-01	-6.75750584483E+01
5.27599639928E+08	-6.59775059866E-01	-7.34215051249E+01
5.29399979996E+08	-6.61538218087E-01	-7.92683492159E+01
5.31200320064E+08	-6.65582281528E-01	-8.51058975913E+01
5.33000660132E+08	-6.66253649914E-01	-9.09479961666E+01
5.34801000200E+08	-6.68198219892E-01	-9.67755783731E+01
5.36601340268E+08	-6.68889187957E-01	-1.02596651852E+02
5.38401680336E+08	-6.72786438778E-01	-1.08420499122E+02
5.40202020404E+08	-6.76455854699E-01	-1.14261961277E+02
5.42002360472E+08	-6.79408519158E-01	-1.20072530581E+02
5.43802700540E+08	-6.83207624045E-01	-1.25893052848E+02
5.45603040608E+08	-6.85604991860E-01	-1.31707736749E+02
5.47403380676E+08	-6.88590106749E-01	-1.37495034063E+02
5.49203720744E+08	-6.94925257460E-01	-1.43300499755E+02
5.51004060812E+08	-7.01020360785E-01	-1.49092580068E+02
5.52804400880E+08	-7.05128064922E-01	-1.54879929643E+02
5.54604740948E+08	-7.09837059554E-01	-1.60657065734E+02
5.56405081016E+08	-7.15246639710E-01	-1.66436643671E+02
5.58205421084E+08	-7.20067032699E-01	-1.72208335474E+02
5.60005761152E+08	-7.23123401254E-01	-1.77957785599E+02
5.61806101220E+08	-7.29952237712E-01	1.76286625293E+02
5.63606441288E+08	-7.34043526438E-01	1.70540652420E+02
5.65406781356E+08	-7.38526478791E-01	1.64792469293E+02
5.67207121424E+08	-7.42971436674E-01	1.59062474495E+02
5.69007461492E+08	-7.48090535451E-01	1.53320541627E+02
5.70807801560E+08	-7.51947160039E-01	1.47606511886E+02
5.72608141628E+08	-7.57189683020E-01	1.41878202834E+02
5.74408481696E+08	-7.59210321263E-01	1.36160396800E+02
5.76208821764E+08	-7.64006549511E-01	1.30453027704E+02
5.78009161832E+08	-7.64928489708E-01	1.24759716668E+02
5.79809501900E+08	-7.70386996043E-01	1.19044848511E+02
5.81609841968E+08	-7.72864491541E-01	1.13332713177E+02
5.83410182036E+08	-7.72610632786E-01	1.07638058707E+02
5.85210522104E+08	-7.74790810986E-01	1.01941492613E+02
5.87010862172E+08	-7.74279109909E-01	9.62431777013E+01
5.88811202240E+08	-7.73434972015E-01	9.05262334715E+01
5.90611542308E+08	-7.75094473322E-01	8.48284704110E+01
5.92411882376E+08	-7.74829024846E-01	7.91316628467E+01
5.94212222444E+08	-7.73620998408E-01	7.34287648677E+01
5.96012562513E+08	-7.73821140090E-01	6.77101216640E+01
5.97812902581E+08	-7.71315675138E-01	6.20080561032E+01
5.99613242649E+08	-7.70233948237E-01	5.62970031835E+01
6.01413582717E+08	-7.68648740614E-01	5.05755927149E+01
6.03213922785E+08	-7.67249933696E-01	4.48516721987E+01
6.05014262853E+08	-7.63213468669E-01	3.91268098917E+01
6.06814602921E+08	-7.60894139497E-01	3.33879452801E+01
6.08614942989E+08	-7.58305247834E-01	2.76523007156E+01
6.10415283057E+08	-7.54531772134E-01	2.19020137622E+01
6.12215623125E+08	-7.51950739162E-01	1.61578791029E+01
6.14015963193E+08	-7.49102791440E-01	1.04032639371E+01
6.15816303261E+08	-7.45236189273E-01	4.62754828535E+00
6.17616643329E+08	-7.43570596339E-01	-1.14065447623E+00
6.19416983397E+08	-7.39662861533E-01	-6.91623403407E+00
6.21217323465E+08	-7.37792639429E-01	-1.27148750332E+01
6.23017663533E+08	-7.33854170575E-01	-1.84943161754E+01
6.24818003601E+08	-7.31549159754E-01	-2.43011720070E+01
6.26618343669E+08	-7.30185363187E-01	-3.01009990534E+01
6.28418683737E+08	-7.27297178969E-01	-3.59088983804E+01
6.30219023805E+08	-7.26947005153E-01	-4.17159543194E+01
6.32019363873E+08	-7.24044927212E-01	-4.75374245395E+01
6.33819703941E+08	-7.24861247658E-01	-5.33660021081E+01
6.35620044009E+08	-7.24511376494E-01	-5.91850267218E+01
6.37420384077E+08	-7.23257420298E-01	-6.50170489735E+01
6.39220724145E+08	-7.23206628920E-01	-7.08595540805E+01
6.41021064213E+08	-7.24420825810E-01	-7.66877454013E+01
6.42821404281E+08	-7.25331768915E-01	-8.25307868589E+01
