# Hz S DB R 50
! CMT, C1209, 21460007, 21.4.4/2
! Date: 4/14/2023 1:46:20 PM
! Data: Format (Calibration Info)
! Freq	S11:dB/Ang(--)
2.40000000000E+09	-1.32340195934E+00	5.27169342707E+01
2.40000000000E+09	-1.32457391855E+00	5.27150233287E+01
2.40000000000E+09	-1.32390422270E+00	5.27170496674E+01
2.40000000000E+09	-1.32352547782E+00	5.27101328242E+01
2.40000000000E+09	-1.32259175679E+00	5.27138273534E+01
2.40000000000E+09	-1.32449430736E+00	5.27189407334E+01
2.40000000000E+09	-1.32366197745E+00	5.27163881841E+01
2.40000000000E+09	-1.32349974197E+00	5.27092165418E+01
2.40000000000E+09	-1.32196690709E+00	5.27156655656E+01
2.40000000000E+09	-1.32389351255E+00	5.27121179982E+01
2.40000000000E+09	-1.32375724724E+00	5.27176516522E+01
2.40000000000E+09	-1.32310107014E+00	5.27138706407E+01
2.40000000000E+09	-1.32468640209E+00	5.27132392324E+01
2.40000000000E+09	-1.32377081374E+00	5.27130129575E+01
2.40000000000E+09	-1.32226405759E+00	5.27044480682E+01
2.40000000000E+09	-1.32365272177E+00	5.27123271379E+01
2.40000000000E+09	-1.32379273531E+00	5.27173466451E+01
2.40000000000E+09	-1.32350963178E+00	5.27231770957E+01
2.40000000000E+09	-1.32525254481E+00	5.27185292724E+01
2.40000000000E+09	-1.32347948883E+00	5.27228032567E+01
2.40000000000E+09	-1.32223552180E+00	5.27124337358E+01
2.40000000000E+09	-1.32223007358E+00	5.27120771666E+01
2.40000000000E+09	-1.32373442458E+00	5.27102271760E+01
2.40000000000E+09	-1.32407550187E+00	5.27189603616E+01
2.40000000000E+09	-1.32539296203E+00	5.27167397687E+01
2.40000000000E+09	-1.32431492416E+00	5.27153117944E+01
2.40000000000E+09	-1.32390518705E+00	5.27167949573E+01
2.40000000000E+09	-1.32131512820E+00	5.27174789944E+01
2.40000000000E+09	-1.32473165354E+00	5.27106374490E+01
2.40000000000E+09	-1.32448365541E+00	5.27184646552E+01
2.40000000000E+09	-1.32500962439E+00	5.27239406433E+01
2.40000000000E+09	-1.32369388390E+00	5.27136489573E+01
2.40000000000E+09	-1.32331182222E+00	5.27177003659E+01
2.40000000000E+09	-1.32277470225E+00	5.27125937998E+01
2.40000000000E+09	-1.32260348541E+00	5.27156990214E+01
2.40000000000E+09	-1.32459453858E+00	5.27164475745E+01
2.40000000000E+09	-1.32308445972E+00	5.27134556663E+01
2.40000000000E+09	-1.32276016826E+00	5.27156311725E+01
2.40000000000E+09	-1.32341340358E+00	5.27153725281E+01
2.40000000000E+09	-1.32364683426E+00	5.27097694948E+01
2.40000000000E+09	-1.32429009175E+00	5.27179624666E+01
2.40000000000E+09	-1.32511953323E+00	5.27042892932E+01
2.40000000000E+09	-1.32479650019E+00	5.27102125503E+01
2.40000000000E+09	-1.32236379780E+00	5.27139551869E+01
2.40000000000E+09	-1.32361460112E+00	5.27218252303E+01
2.40000000000E+09	-1.32193361583E+00	5.27146611529E+01
2.40000000000E+09	-1.32279066829E+00	5.27163835630E+01
2.40000000000E+09	-1.32411435087E+00	5.27104363579E+01
2.40000000000E+09	-1.32280910670E+00	5.27028559730E+01
2.40000000000E+09	-1.32492215151E+00	5.27096117282E+01
2.40000000000E+09	-1.32313194882E+00	5.27211257913E+01
2.40000000000E+09	-1.32394609256E+00	5.27209111212E+01
2.40000000000E+09	-1.32300670819E+00	5.27082050099E+01
2.40000000000E+09	-1.32386183576E+00	5.27166327647E+01
2.40000000000E+09	-1.32328288159E+00	5.27123550193E+01
2.40000000000E+09	-1.32324362832E+00	5.27111442785E+01
2.40000000000E+09	-1.32382106330E+00	5.27212793927E+01
2.40000000000E+09	-1.32559249534E+00	5.27158285785E+01
2.40000000000E+09	-1.32358630453E+00	5.27161164361E+01
2.40000000000E+09	-1.32354585664E+00	5.27128472733E+01
2.40000000000E+09	-1.32442645087E+00	5.27032181265E+01
2.40000000000E+09	-1.32334448856E+00	5.27097396234E+01
2.40000000000E+09	-1.32290866381E+00	5.27108635222E+01
2.40000000000E+09	-1.32377896275E+00	5.27183863921E+01
2.40000000000E+09	-1.32325845872E+00	5.27113556628E+01
2.40000000000E+09	-1.32389949557E+00	5.27138447975E+01
2.40000000000E+09	-1.32243390277E+00	5.27091522607E+01
2.40000000000E+09	-1.32199213280E+00	5.27195440057E+01
2.40000000000E+09	-1.32419051225E+00	5.27121158842E+01
2.40000000000E+09	-1.32313508464E+00	5.27098785645E+01
2.40000000000E+09	-1.32496644695E+00	5.27105633040E+01
2.40000000000E+09	-1.32272751204E+00	5.27254400212E+01
2.40000000000E+09	-1.32377745163E+00	5.27089790213E+01
2.40000000000E+09	-1.32325553414E+00	5.27212580574E+01
2.40000000000E+09	-1.32372397538E+00	5.27086969429E+01
2.40000000000E+09	-1.32475521345E+00	5.27207864921E+01
2.40000000000E+09	-1.32356181996E+00	5.27190444497E+01
2.40000000000E+09	-1.32212229942E+00	5.27047138875E+01
2.40000000000E+09	-1.32376585355E+00	5.27033352315E+01
2.40000000000E+09	-1.32420151105E+00	5.27176616343E+01
2.40000000000E+09	-1.32322502442E+00	5.27131119166E+01
2.40000000000E+09	-1.32278027041E+00	5.27199364311E+01
2.40000000000E+09	-1.32303345111E+00	5.27215583739E+01
2.40000000000E+09	-1.32434215162E+00	5.27100430189E+01
2.40000000000E+09	-1.32419918435E+00	5.27144163608E+01
2.40000000000E+09	-1.32431213484E+00	5.27084008701E+01
2.40000000000E+09	-1.32377932934E+00	5.27181893986E+01
2.40000000000E+09	-1.32486462553E+00	5.27195204383E+01
2.40000000000E+09	-1.32396773399E+00	5.27176155971E+01
2.40000000000E+09	-1.32444308866E+00	5.27106690414E+01
2.40000000000E+09	-1.32306751238E+00	5.26998422292E+01
2.40000000000E+09	-1.32296288565E+00	5.27130142938E+01
2.40000000000E+09	-1.32348694505E+00	5.27103983125E+01
2.40000000000E+09	-1.32336050955E+00	5.27213540078E+01
2.40000000000E+09	-1.32294415562E+00	5.27222689015E+01
2.40000000000E+09	-1.32377921834E+00	5.27039496134E+01
2.40000000000E+09	-1.32534544099E+00	5.27175557465E+01
2.40000000000E+09	-1.32344682931E+00	5.27151977129E+01
2.40000000000E+09	-1.32292564032E+00	5.27011342357E+01
2.40000000000E+09	-1.32508878703E+00	5.27177125429E+01
2.40000000000E+09	-1.32348100160E+00	5.27189628377E+01
2.40000000000E+09	-1.32404104183E+00	5.27109821886E+01
2.40000000000E+09	-1.32496433026E+00	5.27118687526E+01
2.40000000000E+09	-1.32417382487E+00	5.27304013955E+01
2.40000000000E+09	-1.32211607362E+00	5.27183808595E+01
2.40000000000E+09	-1.32422804999E+00	5.27124046463E+01
2.40000000000E+09	-1.32220819185E+00	5.27088153772E+01
2.40000000000E+09	-1.32430748602E+00	5.27095350867E+01
2.40000000000E+09	-1.32277899642E+00	5.27090757493E+01
2.40000000000E+09	-1.32328818923E+00	5.27124630591E+01
2.40000000000E+09	-1.32416098337E+00	5.27238958213E+01
2.40000000000E+09	-1.32582085967E+00	5.27121115036E+01
2.40000000000E+09	-1.32399079768E+00	5.27194172090E+01
2.40000000000E+09	-1.32353852132E+00	5.27222019970E+01
2.40000000000E+09	-1.32376727683E+00	5.27153585500E+01
2.40000000000E+09	-1.32258629679E+00	5.27063932925E+01
2.40000000000E+09	-1.32207233892E+00	5.27188541793E+01
2.40000000000E+09	-1.32477165159E+00	5.27125388325E+01
2.40000000000E+09	-1.32414407290E+00	5.27153085280E+01
2.40000000000E+09	-1.32411812455E+00	5.27059564961E+01
2.40000000000E+09	-1.32436131821E+00	5.27209532209E+01
2.40000000000E+09	-1.32415616692E+00	5.27127744165E+01
2.40000000000E+09	-1.32263406830E+00	5.27229668548E+01
2.40000000000E+09	-1.32415418951E+00	5.27115801626E+01
2.40000000000E+09	-1.32502319769E+00	5.27210945673E+01
2.40000000000E+09	-1.32501159152E+00	5.27152422053E+01
2.40000000000E+09	-1.32313020412E+00	5.27073502135E+01
2.40000000000E+09	-1.32461909060E+00	5.27092228920E+01
2.40000000000E+09	-1.32436072122E+00	5.27192852504E+01
2.40000000000E+09	-1.32393969537E+00	5.27059833678E+01
2.40000000000E+09	-1.32301445908E+00	5.27158757720E+01
2.40000000000E+09	-1.32308985183E+00	5.27121456110E+01
2.40000000000E+09	-1.32329461523E+00	5.27171921404E+01
2.40000000000E+09	-1.32272128443E+00	5.27146020173E+01
2.40000000000E+09	-1.32190930709E+00	5.27218153869E+01
2.40000000000E+09	-1.32354574688E+00	5.27223714263E+01
2.40000000000E+09	-1.32363948797E+00	5.27147569167E+01
2.40000000000E+09	-1.32323564666E+00	5.27124318069E+01
2.40000000000E+09	-1.32268316672E+00	5.27199590253E+01
2.40000000000E+09	-1.32585323874E+00	5.27156719789E+01
2.40000000000E+09	-1.32336347932E+00	5.27123192462E+01
2.40000000000E+09	-1.32337261052E+00	5.27155877082E+01
2.40000000000E+09	-1.32347213155E+00	5.27152952631E+01
2.40000000000E+09	-1.32355144331E+00	5.27204543975E+01
2.40000000000E+09	-1.32336125490E+00	5.27075468212E+01
2.40000000000E+09	-1.32587425064E+00	5.27124609851E+01
2.40000000000E+09	-1.32343930061E+00	5.27059062866E+01
2.40000000000E+09	-1.32336968603E+00	5.27213268701E+01
2.40000000000E+09	-1.32417608232E+00	5.27192595865E+01
2.40000000000E+09	-1.32257430473E+00	5.27093532452E+01
2.40000000000E+09	-1.32429210437E+00	5.27231486291E+01
2.40000000000E+09	-1.32475425768E+00	5.27101551191E+01
2.40000000000E+09	-1.32429468094E+00	5.27250228105E+01
2.40000000000E+09	-1.32238778584E+00	5.27208569332E+01
2.40000000000E+09	-1.32395689856E+00	5.27174698875E+01
2.40000000000E+09	-1.32239145047E+00	5.27199572563E+01
2.40000000000E+09	-1.32376060881E+00	5.27051794016E+01
2.40000000000E+09	-1.32322544067E+00	5.27107432711E+01
2.40000000000E+09	-1.32362487980E+00	5.27153655482E+01
2.40000000000E+09	-1.32445557474E+00	5.27162193588E+01
2.40000000000E+09	-1.32349474053E+00	5.27228182396E+01
2.40000000000E+09	-1.32404598859E+00	5.27081128662E+01
2.40000000000E+09	-1.32320128478E+00	5.27210503124E+01
2.40000000000E+09	-1.32231319483E+00	5.27224746576E+01
2.40000000000E+09	-1.32308248316E+00	5.27162709377E+01
2.40000000000E+09	-1.32319804161E+00	5.27104569803E+01
2.40000000000E+09	-1.32268119725E+00	5.27169114114E+01
2.40000000000E+09	-1.32363264418E+00	5.27113356020E+01
2.40000000000E+09	-1.32360862150E+00	5.27228900731E+01
2.40000000000E+09	-1.32350830470E+00	5.27098314818E+01
2.40000000000E+09	-1.32215186730E+00	5.27036570310E+01
2.40000000000E+09	-1.32316958690E+00	5.27052843427E+01
2.40000000000E+09	-1.32286862392E+00	5.27158836721E+01
2.40000000000E+09	-1.32260444006E+00	5.27111917085E+01
2.40000000000E+09	-1.32272969696E+00	5.27123640526E+01
2.40000000000E+09	-1.32468195006E+00	5.27153411495E+01
2.40000000000E+09	-1.32392316464E+00	5.27209528983E+01
2.40000000000E+09	-1.32362584931E+00	5.27141570794E+01
2.40000000000E+09	-1.32508067530E+00	5.27107702347E+01
2.40000000000E+09	-1.32345767222E+00	5.27204873292E+01
2.40000000000E+09	-1.32447247898E+00	5.27200427283E+01
2.40000000000E+09	-1.32426451287E+00	5.27160590386E+01
2.40000000000E+09	-1.32358879007E+00	5.27202108701E+01
2.40000000000E+09	-1.32353764262E+00	5.27113848989E+01
2.40000000000E+09	-1.32288048516E+00	5.27179609048E+01
2.40000000000E+09	-1.32365081684E+00	5.27036041533E+01
2.40000000000E+09	-1.32240197296E+00	5.27159185628E+01
2.40000000000E+09	-1.32433753453E+00	5.27116223791E+01
2.40000000000E+09	-1.32584792690E+00	5.27133058409E+01
2.40000000000E+09	-1.32442259325E+00	5.27204515881E+01
2.40000000000E+09	-1.32328857038E+00	5.27070182405E+01
2.40000000000E+09	-1.32324629270E+00	5.27121275128E+01
2.40000000000E+09	-1.32369304092E+00	5.27137138393E+01
2.40000000000E+09	-1.32249314087E+00	5.27184477721E+01
2.40000000000E+09	-1.32521318508E+00	5.27182603821E+01
2.40000000000E+09	-1.32344945458E+00	5.27079177704E+01
2.40000000000E+09	-1.32382810129E+00	5.27041716018E+01
2.40000000000E+09	-1.32237037011E+00	5.27198583436E+01
2.40000000000E+09	-1.32419227033E+00	5.27248335360E+01
2.40000000000E+09	-1.32239050096E+00	5.27173157463E+01
2.40000000000E+09	-1.32508761895E+00	5.27280125722E+01
2.40000000000E+09	-1.32354671873E+00	5.27154272283E+01
2.40000000000E+09	-1.32244742972E+00	5.27116260115E+01
2.40000000000E+09	-1.32413871041E+00	5.27073276956E+01
2.40000000000E+09	-1.32274647579E+00	5.27141149934E+01
2.40000000000E+09	-1.32274819467E+00	5.27028281480E+01
2.40000000000E+09	-1.32418541235E+00	5.27197500392E+01
2.40000000000E+09	-1.32302833126E+00	5.27260423721E+01
2.40000000000E+09	-1.32239136981E+00	5.27134260863E+01
2.40000000000E+09	-1.32228143875E+00	5.27111795955E+01
2.40000000000E+09	-1.32506782704E+00	5.27230844134E+01
2.40000000000E+09	-1.32393397665E+00	5.27096309105E+01
2.40000000000E+09	-1.32281296507E+00	5.27061185732E+01
2.40000000000E+09	-1.32341197296E+00	5.27156897134E+01
2.40000000000E+09	-1.32417810678E+00	5.27122352330E+01
2.40000000000E+09	-1.32376620677E+00	5.27211215370E+01
2.40000000000E+09	-1.32357946037E+00	5.27093904209E+01
2.40000000000E+09	-1.32396125750E+00	5.27164724160E+01
2.40000000000E+09	-1.32448812583E+00	5.27165197807E+01
2.40000000000E+09	-1.32232908649E+00	5.27155985782E+01
2.40000000000E+09	-1.32360946369E+00	5.27127158429E+01
2.40000000000E+09	-1.32355923435E+00	5.27011171551E+01
2.40000000000E+09	-1.32532365649E+00	5.27186174400E+01
2.40000000000E+09	-1.32517376254E+00	5.27181272252E+01
2.40000000000E+09	-1.32486382487E+00	5.27173862504E+01
2.40000000000E+09	-1.32370389394E+00	5.27206097479E+01
2.40000000000E+09	-1.32235917876E+00	5.27064276635E+01
2.40000000000E+09	-1.32222969887E+00	5.27110150784E+01
2.40000000000E+09	-1.32529176824E+00	5.27182371393E+01
2.40000000000E+09	-1.32429139162E+00	5.27267125248E+01
2.40000000000E+09	-1.32137527319E+00	5.27164897731E+01
2.40000000000E+09	-1.32307261748E+00	5.27174794274E+01
2.40000000000E+09	-1.32430972689E+00	5.27124475526E+01
2.40000000000E+09	-1.32310688208E+00	5.27154912794E+01
2.40000000000E+09	-1.32219356023E+00	5.27137475695E+01
2.40000000000E+09	-1.32185594308E+00	5.27134173064E+01
2.40000000000E+09	-1.32365570017E+00	5.27075268346E+01
2.40000000000E+09	-1.32438745200E+00	5.27146027197E+01
2.40000000000E+09	-1.32326611923E+00	5.27055327722E+01
2.40000000000E+09	-1.32329547812E+00	5.27224529479E+01
2.40000000000E+09	-1.32374532300E+00	5.27193348626E+01
2.40000000000E+09	-1.32234434378E+00	5.27162573558E+01
2.40000000000E+09	-1.32388169559E+00	5.27140845359E+01
2.40000000000E+09	-1.32424647351E+00	5.27177327520E+01
2.40000000000E+09	-1.32307883133E+00	5.27159157727E+01
2.40000000000E+09	-1.32405976933E+00	5.27191582579E+01
2.40000000000E+09	-1.32417076286E+00	5.27161340438E+01
2.40000000000E+09	-1.32451819473E+00	5.27125399940E+01
2.40000000000E+09	-1.32307548162E+00	5.27186873743E+01
2.40000000000E+09	-1.32359999462E+00	5.27101532355E+01
2.40000000000E+09	-1.32318410421E+00	5.27090097255E+01
2.40000000000E+09	-1.32181206088E+00	5.27167725512E+01
2.40000000000E+09	-1.32285748005E+00	5.27058560649E+01
2.40000000000E+09	-1.32319087813E+00	5.27125772270E+01
2.40000000000E+09	-1.32352834648E+00	5.27138643203E+01
2.40000000000E+09	-1.32280457209E+00	5.27071693736E+01
2.40000000000E+09	-1.32438508315E+00	5.27199719515E+01
2.40000000000E+09	-1.32238271978E+00	5.27181890249E+01
2.40000000000E+09	-1.32227294884E+00	5.27150922693E+01
2.40000000000E+09	-1.32245318786E+00	5.27083086471E+01
2.40000000000E+09	-1.32333685612E+00	5.27043932489E+01
2.40000000000E+09	-1.32426106268E+00	5.27172928929E+01
2.40000000000E+09	-1.32296123958E+00	5.27128734551E+01
2.40000000000E+09	-1.32277779310E+00	5.27202234374E+01
2.40000000000E+09	-1.32372066137E+00	5.27116822888E+01
2.40000000000E+09	-1.32315696106E+00	5.27127381964E+01
2.40000000000E+09	-1.32486433196E+00	5.27084449810E+01
2.40000000000E+09	-1.32385317217E+00	5.27210614415E+01
2.40000000000E+09	-1.32482146477E+00	5.27235029434E+01
2.40000000000E+09	-1.32352645849E+00	5.27129791418E+01
2.40000000000E+09	-1.32272283443E+00	5.27089193636E+01
2.40000000000E+09	-1.32412490629E+00	5.27141219862E+01
2.40000000000E+09	-1.32485192726E+00	5.27228570848E+01
2.40000000000E+09	-1.32447415737E+00	5.27125599477E+01
2.40000000000E+09	-1.32227686518E+00	5.27112786932E+01
2.40000000000E+09	-1.32421038901E+00	5.27152101187E+01
2.40000000000E+09	-1.32351980398E+00	5.27153493626E+01
2.40000000000E+09	-1.32375726562E+00	5.27133180478E+01
2.40000000000E+09	-1.32488691645E+00	5.27095995583E+01
2.40000000000E+09	-1.32414387285E+00	5.27125122062E+01
2.40000000000E+09	-1.32462836493E+00	5.27182852346E+01
2.40000000000E+09	-1.32376172740E+00	5.27192409635E+01
2.40000000000E+09	-1.32357652466E+00	5.27156959934E+01
2.40000000000E+09	-1.32388451687E+00	5.27148803333E+01
2.40000000000E+09	-1.32080610260E+00	5.27148564509E+01
2.40000000000E+09	-1.32366478219E+00	5.27115365168E+01
2.40000000000E+09	-1.32450439249E+00	5.27095408033E+01
2.40000000000E+09	-1.32336208914E+00	5.27100815362E+01
2.40000000000E+09	-1.32349709513E+00	5.27157530329E+01
2.40000000000E+09	-1.32120521964E+00	5.27183851270E+01
2.40000000000E+09	-1.32409645588E+00	5.27162540238E+01
2.40000000000E+09	-1.32379124651E+00	5.27255034214E+01
2.40000000000E+09	-1.32530204441E+00	5.27074008535E+01
2.40000000000E+09	-1.32393276735E+00	5.27165560407E+01
2.40000000000E+09	-1.32310043931E+00	5.27132143423E+01
2.40000000000E+09	-1.32336823327E+00	5.27164370734E+01
2.40000000000E+09	-1.32396500463E+00	5.27129194214E+01
2.40000000000E+09	-1.32326925961E+00	5.27062198286E+01
2.40000000000E+09	-1.32460770036E+00	5.27170978290E+01
2.40000000000E+09	-1.32474431095E+00	5.27122197045E+01
2.40000000000E+09	-1.32396539037E+00	5.27189906100E+01
2.40000000000E+09	-1.32304515558E+00	5.26999659238E+01
2.40000000000E+09	-1.32372190749E+00	5.27178717468E+01
2.40000000000E+09	-1.32337314710E+00	5.27116036502E+01
2.40000000000E+09	-1.32353248280E+00	5.27230337602E+01
2.40000000000E+09	-1.32247699234E+00	5.27184350010E+01
2.40000000000E+09	-1.32444778175E+00	5.27257931952E+01
2.40000000000E+09	-1.32492871122E+00	5.27122351728E+01
2.40000000000E+09	-1.32317837064E+00	5.27077455440E+01
2.40000000000E+09	-1.32490592212E+00	5.27071420174E+01
2.40000000000E+09	-1.32394506278E+00	5.27176474248E+01
2.40000000000E+09	-1.32358290142E+00	5.27173977500E+01
2.40000000000E+09	-1.32352848256E+00	5.27137946616E+01
2.40000000000E+09	-1.32388651167E+00	5.27084441044E+01
2.40000000000E+09	-1.32404476611E+00	5.27205395722E+01
2.40000000000E+09	-1.32488788939E+00	5.27214290373E+01
2.40000000000E+09	-1.32382354115E+00	5.27201590745E+01
2.40000000000E+09	-1.32320795114E+00	5.27118688749E+01
2.40000000000E+09	-1.32380040737E+00	5.27160989020E+01
2.40000000000E+09	-1.32461904242E+00	5.27107040698E+01
2.40000000000E+09	-1.32396682346E+00	5.27224390878E+01
2.40000000000E+09	-1.32304740360E+00	5.26952048698E+01
2.40000000000E+09	-1.32306380334E+00	5.27132135134E+01
2.40000000000E+09	-1.32395343897E+00	5.27117312497E+01
2.40000000000E+09	-1.32302267919E+00	5.27135770938E+01
2.40000000000E+09	-1.32287681117E+00	5.27184348266E+01
2.40000000000E+09	-1.32381119336E+00	5.27039167901E+01
2.40000000000E+09	-1.32365068672E+00	5.27109964961E+01
2.40000000000E+09	-1.32363679353E+00	5.27141759585E+01
2.40000000000E+09	-1.32219491507E+00	5.27209860891E+01
2.40000000000E+09	-1.32422588548E+00	5.27091745203E+01
2.40000000000E+09	-1.32425674152E+00	5.27109460336E+01
2.40000000000E+09	-1.32464195162E+00	5.27152544519E+01
2.40000000000E+09	-1.32422801787E+00	5.27170842678E+01
2.40000000000E+09	-1.32475851940E+00	5.27118463935E+01
2.40000000000E+09	-1.32193093602E+00	5.27069130370E+01
2.40000000000E+09	-1.32358032769E+00	5.27120018417E+01
2.40000000000E+09	-1.32480536908E+00	5.27189352665E+01
2.40000000000E+09	-1.32262656130E+00	5.27233092378E+01
2.40000000000E+09	-1.32256895503E+00	5.27131582729E+01
2.40000000000E+09	-1.32278995883E+00	5.27109107044E+01
2.40000000000E+09	-1.32279389575E+00	5.27170902496E+01
2.40000000000E+09	-1.32369204592E+00	5.27098075515E+01
2.40000000000E+09	-1.32388893433E+00	5.27028715408E+01
2.40000000000E+09	-1.32274306749E+00	5.27038630187E+01
2.40000000000E+09	-1.32268556319E+00	5.27122631273E+01
2.40000000000E+09	-1.32176536620E+00	5.27131466187E+01
2.40000000000E+09	-1.32284191679E+00	5.27195750548E+01
2.40000000000E+09	-1.32374822185E+00	5.27166870660E+01
2.40000000000E+09	-1.32353210715E+00	5.27180110007E+01
2.40000000000E+09	-1.32334961667E+00	5.27052572251E+01
2.40000000000E+09	-1.32355897834E+00	5.27218781475E+01
2.40000000000E+09	-1.32369598889E+00	5.27105179143E+01
2.40000000000E+09	-1.32545488262E+00	5.27080362778E+01
2.40000000000E+09	-1.32289769262E+00	5.27044607772E+01
2.40000000000E+09	-1.32451006193E+00	5.27185028963E+01
2.40000000000E+09	-1.32387302055E+00	5.27064050835E+01
2.40000000000E+09	-1.32393620992E+00	5.27201175391E+01
2.40000000000E+09	-1.32370552022E+00	5.27138005148E+01
2.40000000000E+09	-1.32513122508E+00	5.27131093288E+01
2.40000000000E+09	-1.32319441197E+00	5.27048852771E+01
