# Hz S DB R 50
! CMT, C1209, 21460007, 21.4.4/2
! Date: 4/14/2023 1:53:21 PM
! Data: Format (Calibration Info)
! Freq	S11:dB/Ang(--)
1.00000000000E+05	-1.02865070515E-02	1.79525239063E+02
1.90034006801E+06	-6.92430173973E-02	1.73370652095E+02
3.70068013603E+06	-9.58148554160E-02	1.67353897686E+02
5.50102020404E+06	-1.16563284804E-01	1.61402699157E+02
7.30136027205E+06	-1.34645273245E-01	1.55479280538E+02
9.10170034007E+06	-1.48948745637E-01	1.49560819673E+02
1.09020404081E+07	-1.56613175352E-01	1.43664173074E+02
1.27023804761E+07	-1.72639996525E-01	1.37762191810E+02
1.45027205441E+07	-1.82491983617E-01	1.31866626322E+02
1.63030606121E+07	-1.92118273155E-01	1.25952553863E+02
1.81034006801E+07	-1.99084752012E-01	1.20054379469E+02
1.99037407481E+07	-2.03508993756E-01	1.14182985613E+02
2.17040808162E+07	-2.11525258939E-01	1.08287081907E+02
2.35044208842E+07	-2.13120987702E-01	1.02381931385E+02
2.53047609522E+07	-2.20330404127E-01	9.64927738094E+01
2.71051010202E+07	-2.19770788695E-01	9.05926946583E+01
2.89054410882E+07	-2.21868395464E-01	8.46930190823E+01
3.07057811562E+07	-2.25730786622E-01	7.87991298981E+01
3.25061212242E+07	-2.25192287068E-01	7.28790040770E+01
3.43064612923E+07	-2.26982273168E-01	6.69600866857E+01
3.61068013603E+07	-2.24512663826E-01	6.10392078207E+01
3.79071414283E+07	-2.24171287834E-01	5.51073343383E+01
3.97074814963E+07	-2.24501153084E-01	4.91755309024E+01
4.15078215643E+07	-2.21879119386E-01	4.32417732041E+01
4.33081616323E+07	-2.19911962657E-01	3.72910045820E+01
4.51085017003E+07	-2.19314876147E-01	3.13604953307E+01
4.69088417684E+07	-2.15367483188E-01	2.54190051329E+01
4.87091818364E+07	-2.14543806843E-01	1.94546517490E+01
5.05095219044E+07	-2.14054354797E-01	1.35054991557E+01
5.23098619724E+07	-2.09482670216E-01	7.53844505672E+00
5.41102020404E+07	-2.07475788438E-01	1.59723430592E+00
5.59105421084E+07	-2.07398774357E-01	-4.37190969525E+00
5.77108821764E+07	-2.05223183279E-01	-1.03372107702E+01
5.95112222444E+07	-2.03768822719E-01	-1.62899437609E+01
6.13115623125E+07	-2.02540159298E-01	-2.22706223232E+01
6.31119023805E+07	-1.99979520731E-01	-2.82344500566E+01
6.49122424485E+07	-2.00848334555E-01	-3.41991162279E+01
6.67125825165E+07	-2.03865278806E-01	-4.01418559464E+01
6.85129225845E+07	-2.02531365280E-01	-4.61218960882E+01
7.03132626525E+07	-2.04514586874E-01	-5.20685162571E+01
7.21136027205E+07	-2.06754366889E-01	-5.80224944616E+01
7.39139427886E+07	-2.06825186509E-01	-6.39731625818E+01
7.57142828566E+07	-2.11219843414E-01	-6.99163722434E+01
7.75146229246E+07	-2.13881539898E-01	-7.58502660570E+01
7.93149629926E+07	-2.17880717052E-01	-8.17840984145E+01
8.11153030606E+07	-2.21883323529E-01	-8.77252848504E+01
8.29156431286E+07	-2.29088642839E-01	-9.36387894005E+01
8.47159831966E+07	-2.29807420165E-01	-9.95516002780E+01
8.65163232647E+07	-2.37225418693E-01	-1.05474119331E+02
8.83166633327E+07	-2.42840450708E-01	-1.11379877241E+02
9.01170034007E+07	-2.50490280167E-01	-1.17276215409E+02
9.19173434687E+07	-2.57326223087E-01	-1.23170574932E+02
9.37176835367E+07	-2.63578623306E-01	-1.29048236674E+02
9.55180236047E+07	-2.72118848425E-01	-1.34928156441E+02
9.73183636727E+07	-2.78382940064E-01	-1.40812979528E+02
9.91187037407E+07	-2.85065300664E-01	-1.46678698403E+02
1.00919043809E+08	-2.92971508628E-01	-1.52540842857E+02
1.02719383877E+08	-3.02940000808E-01	-1.58386509206E+02
1.04519723945E+08	-3.11535666489E-01	-1.64243711984E+02
1.06320064013E+08	-3.18937796155E-01	-1.70110904280E+02
1.08120404081E+08	-3.28385776046E-01	-1.75941069633E+02
1.09920744149E+08	-3.35786431087E-01	1.78204384599E+02
1.11721084217E+08	-3.44012653541E-01	1.72368931308E+02
1.13521424285E+08	-3.52258794534E-01	1.66535564733E+02
1.15321764353E+08	-3.59389668841E-01	1.60700504518E+02
1.17122104421E+08	-3.65591564109E-01	1.54860250459E+02
1.18922444489E+08	-3.71060473430E-01	1.49021785083E+02
1.20722784557E+08	-3.79781325559E-01	1.43169865778E+02
1.22523124625E+08	-3.85960925709E-01	1.37342965945E+02
1.24323464693E+08	-3.89557785511E-01	1.31503645953E+02
1.26123804761E+08	-3.95640624444E-01	1.25658794495E+02
1.27924144829E+08	-4.01249436490E-01	1.19811210525E+02
1.29724484897E+08	-4.05852057841E-01	1.13950066893E+02
1.31524824965E+08	-4.06939836048E-01	1.08086319402E+02
1.33325165033E+08	-4.12723558537E-01	1.02244819293E+02
1.35125505101E+08	-4.14075153062E-01	9.63922039558E+01
1.36925845169E+08	-4.18333217134E-01	9.05191644839E+01
1.38726185237E+08	-4.20133268409E-01	8.46465940609E+01
1.40526525305E+08	-4.21758594621E-01	7.87570200588E+01
1.42326865373E+08	-4.22513805776E-01	7.28682805278E+01
1.44127205441E+08	-4.20564914574E-01	6.69809878189E+01
1.45927545509E+08	-4.22181034446E-01	6.10824422133E+01
1.47727885577E+08	-4.23969003643E-01	5.51771291620E+01
1.49528225645E+08	-4.22362132275E-01	4.92625365427E+01
1.51328565713E+08	-4.23272248545E-01	4.33533311725E+01
1.53128905781E+08	-4.20202349999E-01	3.74247290810E+01
1.54929245849E+08	-4.19778781781E-01	3.15006388391E+01
1.56729585917E+08	-4.15390090754E-01	2.55653780675E+01
1.58529925985E+08	-4.16523629930E-01	1.96277311770E+01
1.60330266053E+08	-4.12935333129E-01	1.36778351827E+01
1.62130606121E+08	-4.12463372594E-01	7.72326090831E+00
1.63930946189E+08	-4.10423238724E-01	1.79956045349E+00
1.65731286257E+08	-4.07618774550E-01	-4.17259801569E+00
1.67531626325E+08	-4.07545042670E-01	-1.01146085786E+01
1.69331966393E+08	-4.05923113995E-01	-1.60932668177E+01
1.71132306461E+08	-4.03063298269E-01	-2.20308956188E+01
1.72932646529E+08	-4.02298484871E-01	-2.80183065253E+01
1.74732986597E+08	-4.00211926678E-01	-3.39669965488E+01
1.76533326665E+08	-3.99104719790E-01	-3.99319886937E+01
1.78333666733E+08	-4.00562361528E-01	-4.59027150277E+01
1.80134006801E+08	-3.99782899131E-01	-5.18465987252E+01
1.81934346869E+08	-3.99810406401E-01	-5.78024729276E+01
1.83734686937E+08	-4.00600355607E-01	-6.37533980158E+01
1.85535027005E+08	-4.02913165954E-01	-6.97014539949E+01
1.87335367073E+08	-4.03587620933E-01	-7.56522429807E+01
1.89135707141E+08	-4.04841715004E-01	-8.15886495404E+01
1.90936047209E+08	-4.07998020623E-01	-8.75172162464E+01
1.92736387277E+08	-4.09860821256E-01	-9.34451612485E+01
1.94536727345E+08	-4.14442284925E-01	-9.93699438145E+01
1.96337067413E+08	-4.17096103118E-01	-1.05292370384E+02
1.98137407481E+08	-4.20286161620E-01	-1.11188951358E+02
1.99937747550E+08	-4.25978322024E-01	-1.17098923790E+02
2.01738087618E+08	-4.32312560133E-01	-1.22988375226E+02
2.03538427686E+08	-4.35981753571E-01	-1.28886929652E+02
2.05338767754E+08	-4.41831671636E-01	-1.34762248419E+02
2.07139107822E+08	-4.47354164715E-01	-1.40640023908E+02
2.08939447890E+08	-4.55210096647E-01	-1.46508211806E+02
2.10739787958E+08	-4.60059375816E-01	-1.52367917580E+02
2.12540128026E+08	-4.68879160760E-01	-1.58234369889E+02
2.14340468094E+08	-4.70863657153E-01	-1.64073655870E+02
2.16140808162E+08	-4.79071949869E-01	-1.69927241461E+02
2.17941148230E+08	-4.84789393053E-01	-1.75765418710E+02
2.19741488298E+08	-4.92535597786E-01	1.78405668860E+02
2.21541828366E+08	-4.97955087694E-01	1.72559811514E+02
2.23342168434E+08	-5.02995334549E-01	1.66725744368E+02
2.25142508502E+08	-5.08260362868E-01	1.60892315053E+02
2.26942848570E+08	-5.16447751299E-01	1.55068835886E+02
2.28743188638E+08	-5.18619779343E-01	1.49250719033E+02
2.30543528706E+08	-5.25637478116E-01	1.43409139244E+02
2.32343868774E+08	-5.30781215386E-01	1.37578389098E+02
2.34144208842E+08	-5.31856262632E-01	1.31764692467E+02
2.35944548910E+08	-5.38017835796E-01	1.25931299353E+02
2.37744888978E+08	-5.42759965395E-01	1.20107238180E+02
2.39545229046E+08	-5.44621545430E-01	1.14259298488E+02
2.41345569114E+08	-5.47179966355E-01	1.08422745377E+02
2.43145909182E+08	-5.50906992376E-01	1.02576868485E+02
2.44946249250E+08	-5.53964098388E-01	9.67324735615E+01
2.46746589318E+08	-5.55941604739E-01	9.08824884575E+01
2.48546929386E+08	-5.54781088675E-01	8.50372554133E+01
2.50347269454E+08	-5.55130483261E-01	7.91684306502E+01
2.52147609522E+08	-5.56135750415E-01	7.33054307569E+01
2.53947949590E+08	-5.58268253724E-01	6.74184765782E+01
2.55748289658E+08	-5.55680593981E-01	6.15405940562E+01
2.57548629726E+08	-5.53474031194E-01	5.56642009113E+01
2.59348969794E+08	-5.53422635885E-01	4.97548352867E+01
2.61149309862E+08	-5.51599406029E-01	4.38542380083E+01
2.62949649930E+08	-5.49695746620E-01	3.79630968288E+01
2.64749989998E+08	-5.49024008943E-01	3.20399651908E+01
2.66550330066E+08	-5.45918949994E-01	2.61210530335E+01
2.68350670134E+08	-5.43897241295E-01	2.01757671598E+01
2.70151010202E+08	-5.42367333667E-01	1.42488848765E+01
2.71951350270E+08	-5.38982505075E-01	8.30593564369E+00
2.73751690338E+08	-5.36823202402E-01	2.36396075540E+00
2.75552030406E+08	-5.33061737764E-01	-3.59035417236E+00
2.77352370474E+08	-5.33100362782E-01	-9.52516898501E+00
2.79152710542E+08	-5.29144699621E-01	-1.54875787351E+01
2.80953050610E+08	-5.27637488751E-01	-2.14404078298E+01
2.82753390678E+08	-5.24665198289E-01	-2.74029932142E+01
2.84553730746E+08	-5.23383958203E-01	-3.33608769153E+01
2.86354070814E+08	-5.21413568765E-01	-3.93201918058E+01
2.88154410882E+08	-5.21685181021E-01	-4.53031022597E+01
2.89954750950E+08	-5.20359076251E-01	-5.12538477089E+01
2.91755091018E+08	-5.19729394191E-01	-5.72035332706E+01
2.93555431086E+08	-5.19355498236E-01	-6.31772488683E+01
2.95355771154E+08	-5.21684887974E-01	-6.91230877086E+01
2.97156111222E+08	-5.21276909542E-01	-7.50859894540E+01
2.98956451290E+08	-5.23640671667E-01	-8.10278818308E+01
3.00756791358E+08	-5.24265765349E-01	-8.69692582702E+01
3.02557131426E+08	-5.27492306419E-01	-9.29264419529E+01
3.04357471494E+08	-5.28314218134E-01	-9.88509550269E+01
3.06157811562E+08	-5.32774207676E-01	-1.04776200744E+02
3.07958151630E+08	-5.35647641749E-01	-1.10709645116E+02
3.09758491698E+08	-5.40080041068E-01	-1.16616040568E+02
3.11558831766E+08	-5.44902679876E-01	-1.22517524714E+02
3.13359171834E+08	-5.49025255226E-01	-1.28430575957E+02
3.15159511902E+08	-5.53296661943E-01	-1.34334257005E+02
3.16959851970E+08	-5.56486646476E-01	-1.40200626311E+02
3.18760192038E+08	-5.63839371979E-01	-1.46092294917E+02
3.20560532106E+08	-5.67336658189E-01	-1.51967215254E+02
3.22360872174E+08	-5.72998156677E-01	-1.57825648902E+02
3.24161212242E+08	-5.79489657456E-01	-1.63697364057E+02
3.25961552310E+08	-5.83098538970E-01	-1.69538556713E+02
3.27761892378E+08	-5.90036782439E-01	-1.75394544936E+02
3.29562232446E+08	-5.94678673775E-01	1.78766206324E+02
3.31362572515E+08	-6.00994159150E-01	1.72926962745E+02
3.33162912583E+08	-6.04452913969E-01	1.67093020953E+02
3.34963252651E+08	-6.10490883547E-01	1.61264565710E+02
3.36763592719E+08	-6.16352813121E-01	1.55430059557E+02
3.38563932787E+08	-6.21127453335E-01	1.49615246305E+02
3.40364272855E+08	-6.26076834153E-01	1.43801285596E+02
3.42164612923E+08	-6.29841818999E-01	1.37959230485E+02
3.43964952991E+08	-6.32484644220E-01	1.32154570538E+02
3.45765293059E+08	-6.36170610622E-01	1.26320984047E+02
3.47565633127E+08	-6.38006142772E-01	1.20518900643E+02
3.49365973195E+08	-6.41462337595E-01	1.14690782213E+02
3.51166313263E+08	-6.43744642793E-01	1.08866535271E+02
3.52966653331E+08	-6.46572582463E-01	1.03036403935E+02
3.54766993399E+08	-6.47057997681E-01	9.72203056889E+01
3.56567333467E+08	-6.49312328674E-01	9.13797760161E+01
3.58367673535E+08	-6.48111240377E-01	8.55509438888E+01
3.60168013603E+08	-6.50096105533E-01	7.96967872531E+01
3.61968353671E+08	-6.49995967773E-01	7.38455087564E+01
3.63768693739E+08	-6.49474297320E-01	6.79875466293E+01
3.65569033807E+08	-6.49943281913E-01	6.21409452610E+01
3.67369373875E+08	-6.47241946371E-01	5.62729423176E+01
3.69169713943E+08	-6.45678389666E-01	5.03955884617E+01
3.70970054011E+08	-6.43046756604E-01	4.45236359402E+01
3.72770394079E+08	-6.44649240446E-01	3.86410480597E+01
3.74570734147E+08	-6.39442865097E-01	3.27426128484E+01
3.76371074215E+08	-6.37683834768E-01	2.68378344074E+01
3.78171414283E+08	-6.35254019767E-01	2.09306009552E+01
3.79971754351E+08	-6.31080385953E-01	1.50158711336E+01
3.81772094419E+08	-6.29791088471E-01	9.10494390336E+00
3.83572434487E+08	-6.25517485924E-01	3.18422893708E+00
3.85372774555E+08	-6.25544466578E-01	-2.75607422271E+00
3.87173114623E+08	-6.21660911841E-01	-8.69083778297E+00
3.88973454691E+08	-6.19248094943E-01	-1.46255442962E+01
3.90773794759E+08	-6.16435229884E-01	-2.05798078767E+01
3.92574134827E+08	-6.14904174100E-01	-2.65397821339E+01
3.94374474895E+08	-6.10249763095E-01	-3.24903320698E+01
3.96174814963E+08	-6.09725362490E-01	-3.84440701300E+01
3.97975155031E+08	-6.09222848364E-01	-4.43984363911E+01
3.99775495099E+08	-6.08901923523E-01	-5.03564198510E+01
4.01575835167E+08	-6.08237361343E-01	-5.63105341958E+01
4.03376175235E+08	-6.06908138952E-01	-6.22759090384E+01
4.05176515303E+08	-6.08266437682E-01	-6.82328398118E+01
4.06976855371E+08	-6.09543378502E-01	-7.41865341609E+01
4.08777195439E+08	-6.08965462616E-01	-8.01542375583E+01
4.10577535507E+08	-6.09913203383E-01	-8.61124247315E+01
4.12377875575E+08	-6.11663129920E-01	-9.20491824799E+01
4.14178215643E+08	-6.14261602578E-01	-9.79963638932E+01
4.15978555711E+08	-6.17378256863E-01	-1.03932130159E+02
4.17778895779E+08	-6.21218100637E-01	-1.09875153145E+02
4.19579235847E+08	-6.24792113070E-01	-1.15802093557E+02
4.21379575915E+08	-6.28078227690E-01	-1.21730440661E+02
4.23179915983E+08	-6.32456677931E-01	-1.27640969845E+02
4.24980256051E+08	-6.35920377819E-01	-1.33555982391E+02
4.26780596119E+08	-6.41235854309E-01	-1.39465546599E+02
4.28580936187E+08	-6.45032173061E-01	-1.45365343132E+02
4.30381276255E+08	-6.50031280589E-01	-1.51234982773E+02
4.32181616323E+08	-6.55999487090E-01	-1.57134114031E+02
4.33981956391E+08	-6.60168085282E-01	-1.63017990084E+02
4.35782296459E+08	-6.64506351311E-01	-1.68895066562E+02
4.37582636527E+08	-6.70894679344E-01	-1.74746124772E+02
4.39382976595E+08	-6.75022310221E-01	1.79391636524E+02
4.41183316663E+08	-6.81405891560E-01	1.73541030602E+02
4.42983656731E+08	-6.86277649348E-01	1.67690257188E+02
4.44783996799E+08	-6.90929831769E-01	1.61839095845E+02
4.46584336867E+08	-6.93675785206E-01	1.56008205240E+02
4.48384676935E+08	-7.00203201012E-01	1.50177784946E+02
4.50185017003E+08	-7.03211906077E-01	1.44337174082E+02
4.51985357071E+08	-7.05371261846E-01	1.38513146194E+02
4.53785697139E+08	-7.09482001779E-01	1.32682836862E+02
4.55586037207E+08	-7.14173032967E-01	1.26873973044E+02
4.57386377275E+08	-7.16960503275E-01	1.21032035651E+02
4.59186717343E+08	-7.18867591507E-01	1.15225639313E+02
4.60987057411E+08	-7.21943009196E-01	1.09407557809E+02
4.62787397479E+08	-7.22035950615E-01	1.03577691240E+02
4.64587737548E+08	-7.25292040156E-01	9.77578438006E+01
4.66388077616E+08	-7.23882846601E-01	9.19392887851E+01
4.68188417684E+08	-7.24205981660E-01	8.61120800402E+01
4.69988757752E+08	-7.24347709090E-01	8.02679338550E+01
4.71789097820E+08	-7.24250659324E-01	7.44299290022E+01
4.73589437888E+08	-7.24168631899E-01	6.85952469871E+01
4.75389777956E+08	-7.22202396079E-01	6.27547169958E+01
4.77190118024E+08	-7.23194898329E-01	5.69099732339E+01
4.78990458092E+08	-7.20203133358E-01	5.10527752988E+01
4.80790798160E+08	-7.19908867365E-01	4.51811464945E+01
4.82591138228E+08	-7.17109928724E-01	3.93262211984E+01
4.84391478296E+08	-7.13073871070E-01	3.34337108510E+01
4.86191818364E+08	-7.10460158931E-01	2.75611462656E+01
4.87992158432E+08	-7.09467131559E-01	2.16746803418E+01
4.89792498500E+08	-7.03831016022E-01	1.57873508084E+01
4.91592838568E+08	-7.04035621437E-01	9.87846915103E+00
4.93393178636E+08	-6.99397702052E-01	3.95922004729E+00
4.95193518704E+08	-6.95746682327E-01	-1.93801417779E+00
4.96993858772E+08	-6.93727298494E-01	-7.86307614860E+00
4.98794198840E+08	-6.90924003272E-01	-1.37971241623E+01
5.00594538908E+08	-6.88575660462E-01	-1.97235148142E+01
5.02394878976E+08	-6.87420577761E-01	-2.56684724534E+01
5.04195219044E+08	-6.83843392004E-01	-3.16238433910E+01
5.05995559112E+08	-6.83625280554E-01	-3.75581693159E+01
5.07795899180E+08	-6.79823233491E-01	-4.35171911811E+01
5.09596239248E+08	-6.78331842211E-01	-4.94636608384E+01
5.11396579316E+08	-6.79157428297E-01	-5.54284263349E+01
5.13196919384E+08	-6.77931347818E-01	-6.13761577097E+01
5.14997259452E+08	-6.80539971127E-01	-6.73453272745E+01
5.16797599520E+08	-6.79925365660E-01	-7.32959138862E+01
5.18597939588E+08	-6.80446233160E-01	-7.92738562521E+01
5.20398279656E+08	-6.79578086720E-01	-8.52302660889E+01
5.22198619724E+08	-6.82961574579E-01	-9.11933475143E+01
5.23998959792E+08	-6.84751487254E-01	-9.71439578037E+01
5.25799299860E+08	-6.86797624419E-01	-1.03099436297E+02
5.27599639928E+08	-6.88832403068E-01	-1.09056270115E+02
5.29399979996E+08	-6.93326193056E-01	-1.14999282831E+02
5.31200320064E+08	-6.96210229779E-01	-1.20939618945E+02
5.33000660132E+08	-7.01787675220E-01	-1.26870120591E+02
5.34801000200E+08	-7.03838614448E-01	-1.32811775214E+02
5.36601340268E+08	-7.09263886382E-01	-1.38723936058E+02
5.38401680336E+08	-7.14290711326E-01	-1.44661213116E+02
5.40202020404E+08	-7.19972010649E-01	-1.50571121870E+02
5.42002360472E+08	-7.23422124897E-01	-1.56483575690E+02
5.43802700540E+08	-7.27322179515E-01	-1.62381828871E+02
5.45603040608E+08	-7.31663244864E-01	-1.68277596311E+02
5.47403380676E+08	-7.39272838350E-01	-1.74159940984E+02
5.49203720744E+08	-7.42296559827E-01	1.79955138865E+02
5.51004060812E+08	-7.47553683592E-01	1.74080342394E+02
5.52804400880E+08	-7.53088502204E-01	1.68214486201E+02
5.54604740948E+08	-7.57647857974E-01	1.62361550842E+02
5.56405081016E+08	-7.61599941400E-01	1.56494188401E+02
5.58205421084E+08	-7.65395299343E-01	1.50656694362E+02
5.60005761152E+08	-7.70252665852E-01	1.44794810976E+02
5.61806101220E+08	-7.72509230158E-01	1.38965655968E+02
5.63606441288E+08	-7.76912833066E-01	1.33137493283E+02
5.65406781356E+08	-7.79364210522E-01	1.27298194647E+02
5.67207121424E+08	-7.82712110555E-01	1.21484721884E+02
5.69007461492E+08	-7.84722360557E-01	1.15649871657E+02
5.70807801560E+08	-7.87984527957E-01	1.09826461895E+02
5.72608141628E+08	-7.89085793223E-01	1.03999869457E+02
5.74408481696E+08	-7.90473133711E-01	9.81762586179E+01
5.76208821764E+08	-7.88943747873E-01	9.23548239773E+01
5.78009161832E+08	-7.90851544257E-01	8.65348277323E+01
5.79809501900E+08	-7.89891353920E-01	8.06992005697E+01
5.81609841968E+08	-7.88532053714E-01	7.48640997630E+01
5.83410182036E+08	-7.87855014998E-01	6.90497825611E+01
5.85210522104E+08	-7.85454239474E-01	6.32062721612E+01
5.87010862172E+08	-7.84371153319E-01	5.73700644276E+01
5.88811202240E+08	-7.82924295096E-01	5.15338018841E+01
5.90611542308E+08	-7.80982074266E-01	4.56823419527E+01
5.92411882376E+08	-7.80161138219E-01	3.98304877821E+01
5.94212222444E+08	-7.75242640810E-01	3.39614655996E+01
5.96012562513E+08	-7.72632980232E-01	2.81049519570E+01
5.97812902581E+08	-7.69770657043E-01	2.22398942365E+01
5.99613242649E+08	-7.66422708192E-01	1.63655702521E+01
6.01413582717E+08	-7.64029571304E-01	1.04874324994E+01
6.03213922785E+08	-7.60948507680E-01	4.58008579372E+00
6.05014262853E+08	-7.55715732360E-01	-1.32222072695E+00
6.06814602921E+08	-7.53084097469E-01	-7.22089030818E+00
6.08614942989E+08	-7.52007055457E-01	-1.31355916790E+01
6.10415283057E+08	-7.48813280413E-01	-1.90463943282E+01
6.12215623125E+08	-7.46672377214E-01	-2.49729648265E+01
6.14015963193E+08	-7.41852040065E-01	-3.08982419530E+01
6.15816303261E+08	-7.41829687269E-01	-3.68438740274E+01
6.17616643329E+08	-7.39708727275E-01	-4.27821886412E+01
6.19416983397E+08	-7.38909679180E-01	-4.87413437796E+01
6.21217323465E+08	-7.39969823620E-01	-5.46896387857E+01
6.23017663533E+08	-7.37714189580E-01	-6.06407251804E+01
6.24818003601E+08	-7.37878712147E-01	-6.66006478729E+01
6.26618343669E+08	-7.37900977823E-01	-7.25645603139E+01
6.28418683737E+08	-7.38443466084E-01	-7.85194201945E+01
6.30219023805E+08	-7.37896948150E-01	-8.44813884035E+01
6.32019363873E+08	-7.41297693974E-01	-9.04351263693E+01
6.33819703941E+08	-7.43031266307E-01	-9.63955740529E+01
6.35620044009E+08	-7.44521011696E-01	-1.02370910054E+02
6.37420384077E+08	-7.46041555911E-01	-1.08331188180E+02
6.39220724145E+08	-7.52253845593E-01	-1.14287557063E+02
6.41021064213E+08	-7.56237967913E-01	-1.20235844533E+02
6.42821404281E+08	-7.58218344444E-01	-1.26190206238E+02
